s11a,s11m,s21a,s21m,s22m,s22a,s12m,s12a,wavelengths,freqs
2.723414530029655,0.010411316654802695,-1.9914740484779183,0.9904139505512379,0.010411316654802695,2.723414530029655,0.9904139505512379,-1.9914740484779183,1.5,0.6666666666666666
2.7700476093698048,0.009113867985842555,-2.0889897936283868,0.9904996826340893,0.009113867985842555,2.7700476093698048,0.9904996826340893,-2.0889897936283868,1.5020408163265306,0.6657608695652174
2.858256470528999,0.007946961311985853,-2.1862411695580977,0.9905918401429964,0.007946961311985853,2.858256470528999,0.9905918401429964,-2.1862411695580977,1.5040816326530613,0.6648575305291723
2.999241718997114,0.007025442068737743,-2.283230236531597,0.9906891918231637,0.007025442068737743,2.999241718997114,0.9906891918231637,-2.283230236531597,1.506122448979592,0.6639566395663956
3.192744601567659,0.006493368778063201,-2.3799588141041284,0.9907903875931215,0.006493368778063201,3.192744601567659,0.9907903875931215,-2.3799588141041284,1.5081632653061225,0.6630581867388362
3.411923829902924,0.0064702137827219374,-2.476428468779003,0.9908940021912104,0.0064702137827219374,3.411923829902924,0.9908940021912104,-2.476428468779003,1.510204081632653,0.6621621621621622
3.611238060394122,0.006966759961688825,-2.572640509833948,0.9909985793520752,0.006966759961688825,3.611238060394122,0.9909985793520752,-2.572640509833948,1.5122448979591836,0.6612685560053981
3.760354358783431,0.007877407942140062,-2.668595993084322,0.9911026750836481,0.007877407942140062,3.760354358783431,0.9911026750836481,-2.668595993084322,1.5142857142857142,0.6603773584905661
3.856442215663273,0.009060603987512298,-2.7642957321256825,0.9912048986298014,0.009060603987512298,3.856442215663273,0.9912048986298014,-2.7642957321256825,1.5163265306122449,0.6594885598923285
3.9100844066886227,0.010399810196548299,-2.8597403162800017,0.9913039497906764,0.010399810196548299,3.9100844066886227,0.9913039497906764,-2.8597403162800017,1.5183673469387755,0.6586021505376344
3.933075466670453,0.011814243297166812,-2.9549301341693752,0.9913986514808402,0.011814243297166812,3.933075466670453,0.9913986514808402,-2.9549301341693752,1.5204081632653061,0.6577181208053691
3.9345679769953033,0.013249892498772654,-3.0498654016216156,0.9914879767766636,0.013249892498772654,3.9345679769953033,0.9914879767766636,-3.0498654016216156,1.5224489795918368,0.6568364611260054
3.9209693922518394,0.014669835575060717,-3.1445461925903073,0.9915710700930577,0.014669835575060717,3.9209693922518394,0.9915710700930577,-3.1445461925903073,1.5244897959183674,0.6559571619812583
3.896659427302611,0.01604778029575712,-3.238972471905364,0.9916472624475061,0.01604778029575712,3.896659427302611,0.9916472624475061,-3.238972471905364,1.526530612244898,0.6550802139037433
3.864650383399779,0.01736423530649786,-3.3331441288562593,0.9917160809536545,0.01736423530649786,3.864650383399779,0.9917160809536545,-3.3331441288562593,1.5285714285714287,0.6542056074766355
3.8270521394524026,0.018604291789649223,-3.427061010766905,0.9917772527438483,0.018604291789649223,3.8270521394524026,0.9917772527438483,-3.427061010766905,1.530612244897959,0.6533333333333333
3.7853767537805503,0.019756323644108724,-3.520722955788493,0.991830703540483,0.019756323644108724,3.7853767537805503,0.991830703540483,-3.520722955788493,1.5326530612244897,0.6524633821571239
3.740734956005004,0.020811206501759032,-3.6141298241348307,0.9918765511679549,0.020811206501759032,3.740734956005004,0.9918765511679549,-3.6141298241348307,1.5346938775510204,0.6515957446808511
3.693963726341493,0.021761833691950942,-3.7072815270058,0.9919150944275813,0.021761833691950942,3.693963726341493,0.9919150944275813,-3.7072815270058,1.536734693877551,0.650730411686587
3.645710445974062,0.022602805785150004,-3.8001780525335795,0.9919467979183798,0.022602805785150004,3.645710445974062,0.9919467979183798,-3.8001780525335795,1.5387755102040817,0.649867374005305
3.596489511120133,0.023330223936440363,-3.892819488256957,0.991972273510586,0.023330223936440363,3.596489511120133,0.991972273510586,-3.892819488256957,1.5408163265306123,0.6490066225165563
3.5467212537629713,0.023941546625500337,-3.9852060398259885,0.9919922592082566,0.023941546625500337,3.5467212537629713,0.9919922592082566,-3.9852060398259885,1.542857142857143,0.6481481481481481
3.4967593106953805,0.024435485790130967,-4.077338045807576,0.9920075960798382,0.024435485790130967,3.4967593106953805,0.9920075960798382,-4.077338045807576,1.5448979591836736,0.6472919418758256
3.446910326180344,0.02481192769355501,-4.169215988536105,0.9920192038563922,0.02481192769355501,3.446910326180344,0.9920192038563922,-4.169215988536105,1.5469387755102042,0.646437994722955
3.397448487043534,0.02507186929661393,-4.2608405009720425,0.9920280557426613,0.02507186929661393,3.397448487043534,0.9920280557426613,-4.2608405009720425,1.5489795918367348,0.6455862977602107
3.3486265259293972,0.025217364133034704,-4.352212369543439,0.9920351529872505,0.025217364133034704,3.3486265259293972,0.9920351529872505,-4.352212369543439,1.5510204081632653,0.6447368421052632
3.3006842827366456,0.02525147367120346,-4.443332532975868,0.9920414998350157,0.02525147367120346,3.3006842827366456,0.9920414998350157,-4.443332532975868,1.5530612244897959,0.6438896189224704
3.253855562571295,0.02517822144574587,-4.534202077256431,0.992048079509332,0.02517822144574587,3.253855562571295,0.992048079509332,-4.534202077256431,1.5551020408163265,0.6430446194225722
3.208373795620475,0.025002548174084684,-4.624822227027436,0.992055831869437,0.025002548174084684,3.208373795620475,0.992055831869437,-4.624822227027436,1.5571428571428572,0.6422018348623854
3.16447684296543,0.02473026680210992,-4.715194333861493,0.9920656332825211,0.02473026680210992,3.16447684296543,0.9920656332825211,-4.715194333861493,1.5591836734693878,0.6413612565445026
3.122411171813827,0.024368017014214927,-4.805319861958468,0.9920782790965348,0.024368017014214927,3.122411171813827,0.9920782790965348,-4.805319861958468,1.5612244897959184,0.6405228758169934
3.08243552306368,0.023923219199937396,-4.895200336946877,0.9920945114467538,0.023923219199937396,3.08243552306368,0.9920945114467538,-4.895200336946877,1.563265306122449,0.639686684073107
3.0448240980152526,0.023404028170490424,-4.9848374677175045,0.9921148376233309,0.023404028170490424,3.0448240980152526,0.9921148376233309,-4.9848374677175045,1.5653061224489797,0.6388526727509778
3.009869186625031,0.022819287028010653,-5.0742329175282554,0.9921397762129222,0.022819287028010653,3.009869186625031,0.9921397762129222,-5.0742329175282554,1.5673469387755103,0.6380208333333333
2.97788303470563,0.022178481473043753,-5.163388424673885,0.9921696817754089,0.022178481473043753,2.97788303470563,0.9921696817754089,-5.163388424673885,1.569387755102041,0.6371911573472041
2.9491985896340203,0.021491694436260488,-5.252305747683109,0.9922047849306326,0.021491694436260488,2.9491985896340203,0.9922047849306326,-5.252305747683109,1.5714285714285714,0.6363636363636364
2.9241685620575626,0.020769560150463856,-5.340986646056769,0.9922451931305374,0.020769560150463856,2.9241685620575626,0.9922451931305374,-5.340986646056769,1.573469387755102,0.6355382619974059
2.9031619886148534,0.020023215505100802,-5.429432861967981,0.9922908943671677,0.020023215505100802,2.9031619886148534,0.9922908943671677,-5.429432861967981,1.5755102040816327,0.6347150259067358
2.8865571860131083,0.019264244570650842,-5.517646103408625,0.9923417634957807,0.019264244570650842,2.8865571860131083,0.9923417634957807,-5.517646103408625,1.5775510204081633,0.6338939197930142
2.8747296891858873,0.01850460940034514,-5.605628029129446,0.9923975707512093,0.01850460940034514,2.8747296891858873,0.9923975707512093,-5.605628029129446,1.579591836734694,0.6330749354005167
2.868033560631486,0.017756556586372825,-5.693380235578022,0.9924579920166244,0.017756556586372825,2.868033560631486,0.9924579920166244,-5.693380235578022,1.5816326530612246,0.632258064516129
2.8667745249038203,0.017032484907723532,-5.780904245916763,0.9925226204461514,0.017032484907723532,2.8667745249038203,0.9925226204461514,-5.780904245916763,1.5836734693877552,0.6314432989690721
2.8711740054815946,0.01634475572639748,-5.868201501150187,0.9925909791166375,0.01634475572639748,2.8711740054815946,0.9925909791166375,-5.868201501150187,1.5857142857142859,0.6306306306306306
2.8813246765929,0.015705426497695484,-5.955273353391136,0.9926625344308541,0.015705426497695484,2.8813246765929,0.9926625344308541,-5.955273353391136,1.5877551020408165,0.6298200514138816
2.897140872969068,0.015125891842300147,-6.042121061311336,0.9927367099901196,0.015125891842300147,2.897140872969068,0.9927367099901196,-6.042121061311336,1.5897959183673471,0.6290115532734274
2.918311024103887,0.014616429553883769,-6.128745787811668,0.9928129006110435,0.014616429553883769,2.918311024103887,0.9928129006110435,-6.128745787811668,1.5918367346938775,0.6282051282051282
2.9442632823939974,0.014185672860992819,-6.215148599875088,0.9928904861094249,0.014185672860992819,2.9442632823939974,0.9928904861094249,-6.215148599875088,1.5938775510204082,0.6274007682458387
2.9741577303808007,0.013840063067824732,-6.3013304704595825,0.9929688444750528,0.013840063067824732,2.9741577303808007,0.9929688444750528,-6.3013304704595825,1.5959183673469388,0.6265984654731458
3.006916462188228,0.013583369047857187,-6.387292282172461,0.9930473641162979,0.013583369047857187,3.006916462188228,0.9930473641162979,-6.387292282172461,1.5979591836734695,0.6257982120051085
3.0412949544428627,0.013416376166018684,-6.473034832413799,0.9931254549759377,0.013416376166018684,3.0412949544428627,0.9931254549759377,-6.473034832413799,1.6,0.625
