s11a,s11m,s21a,s21m,s22m,s22a,s12m,s12a,wavelengths,freqs
3.056878043545947,0.021252310018214465,-1.4642654856546753,0.9908943519698674,0.021252310018214465,3.056878043545947,0.9908943519698674,-1.4642654856546753,1.5,0.6666666666666666
3.152691792408002,0.02250350288107236,-1.5648986833627736,0.9908216150742454,0.02250350288107236,3.152691792408002,0.9908216150742454,-1.5648986833627736,1.5020408163265306,0.6657608695652174
3.2236691630913157,0.02418034566978022,-1.665223895514204,0.990736574281225,0.02418034566978022,3.2236691630913157,0.990736574281225,-1.665223895514204,1.5040816326530613,0.6648575305291723
3.2708286250334178,0.026128059797581732,-1.7652411054063495,0.9906422095732511,0.026128059797581732,3.2708286250334178,0.9906422095732511,-1.7652411054063495,1.506122448979592,0.6639566395663956
3.297494891014043,0.028218232188750577,-1.8649507549353475,0.9905416235787666,0.028218232188750577,3.297494891014043,0.9905416235787666,-1.8649507549353475,1.5081632653061225,0.6630581867388362
3.3074773427721684,0.030351454089269564,-1.964353750759846,0.9904379698199324,0.030351454089269564,3.3074773427721684,0.9904379698199324,-1.964353750759846,1.510204081632653,0.6621621621621622
3.304225675927531,0.03245291656861328,-2.0634514595561417,0.990334383083688,0.03245291656861328,3.304225675927531,0.990334383083688,-2.0634514595561417,1.5122448979591836,0.6612685560053981
3.290580540230272,0.0344666765405435,-2.162245693509242,0.9902339131107522,0.0344666765405435,3.290580540230272,0.9902339131107522,-2.162245693509242,1.5142857142857142,0.6603773584905661
3.2687863564414696,0.0363507502412089,-2.260738686893736,0.9901394624447062,0.0363507502412089,3.2687863564414696,0.9901394624447062,-2.260738686893736,1.5163265306122449,0.6594885598923285
3.2405889485388713,0.038073450152082355,-2.3589330643629105,0.9900537293078918,0.038073450152082355,3.2405889485388713,0.9900537293078918,-2.3589330643629105,1.5183673469387755,0.6586021505376344
3.2073435376121076,0.03961079386397765,-2.4568318016553814,0.9899791565475046,0.03961079386397765,3.2073435376121076,0.9899791565475046,-2.4568318016553814,1.5204081632653061,0.6577181208053691
3.17010815470616,0.04094470439648931,-2.5544381797585642,0.9899178877931789,0.04094470439648931,3.17010815470616,0.9899178877931789,-2.5544381797585642,1.5224489795918368,0.6568364611260054
3.1297175907495483,0.04206176065957405,-2.6517557339944524,0.9898717316677272,0.04206176065957405,3.1297175907495483,0.9898717316677272,-2.6517557339944524,1.5244897959183674,0.6559571619812583
3.086839869950947,0.04295232181400013,-2.7487881996563153,0.9898421344292581,0.04295232181400013,3.086839869950947,0.9898421344292581,-2.7487881996563153,1.526530612244898,0.6550802139037433
3.042018883322457,0.043609904750447785,-2.845539455708904,0.9898301609072852,0.043609904750447785,3.042018883322457,0.9898301609072852,-2.845539455708904,1.5285714285714287,0.6542056074766355
2.9957066597087176,0.04403073390243026,-2.942013467697794,0.9898364833904028,0.04403073390243026,2.9957066597087176,0.9898364833904028,-2.942013467697794,1.530612244897959,0.6533333333333333
2.948288115810772,0.04421340966490974,-3.0382142307365494,0.9898613780926859,0.04421340966490974,2.948288115810772,0.9898613780926859,-3.0382142307365494,1.5326530612244897,0.6524633821571239
2.9001004823314247,0.04415865958002713,-3.134145713317275,0.9899047290367716,0.04415865958002713,2.9001004823314247,0.9899047290367716,-3.134145713317275,1.5346938775510204,0.6515957446808511
2.8514490915505006,0.04386914830542224,-3.229811802806651,0.9899660392419284,0.04386914830542224,2.8514490915505006,0.9899660392419284,-3.229811802806651,1.536734693877551,0.650730411686587
2.8026208467425895,0.04334933046209081,-3.325216253678679,0.9900444490071202,0.04334933046209081,2.8026208467425895,0.9900444490071202,-3.325216253678679,1.5387755102040817,0.649867374005305
2.7538964668408266,0.04260533617657055,-3.420362639564238,0.9901387608138509,0.04260533617657055,2.7538964668408266,0.9901387608138509,-3.420362639564238,1.5408163265306123,0.6490066225165563
2.7055624908819795,0.04164488341576291,-3.5152543100687206,0.990247470082352,0.04164488341576291,2.7055624908819795,0.990247470082352,-3.5152543100687206,1.542857142857143,0.6481481481481481
2.657924035666933,0.040477214674983136,-3.6098943530185017,0.9903688008379617,0.040477214674983136,2.657924035666933,0.9903688008379617,-3.6098943530185017,1.5448979591836736,0.6472919418758256
2.611319436341764,0.039113058735189964,-3.704285562500163,0.9905007454268684,0.039113058735189964,2.611319436341764,0.9905007454268684,-3.704285562500163,1.5469387755102042,0.646437994722955
2.5661382020309182,0.037564621676219816,-3.798430412931573,0.990641107515223,0.037564621676219816,2.5661382020309182,0.990641107515223,-3.798430412931573,1.5489795918367348,0.6455862977602107
2.5228442512642646,0.03584561588853916,-3.8923310394201285,0.9907875477393936,0.03584561588853916,2.5228442512642646,0.9907875477393936,-3.8923310394201285,1.5510204081632653,0.6447368421052632
2.4820072727565945,0.03397134262501283,-3.9859892247444426,0.9909376313251066,0.03397134262501283,2.4820072727565945,0.9909376313251066,-3.9859892247444426,1.5530612244897959,0.6438896189224704
2.444346473974826,0.03195885444857538,-4.07940639331221,0.9910888767982732,0.03195885444857538,2.444346473974826,0.9910888767982732,-4.07940639331221,1.5551020408163265,0.6430446194225722
2.410793233133299,0.029827241710119856,-4.172583612264209,0.9912388047175708,0.029827241710119856,2.410793233133299,0.9912388047175708,-4.172583612264209,1.5571428571428572,0.6422018348623854
2.382582694712197,0.027598117139724914,-4.265521599601183,0.9913849852218561,0.027598117139724914,2.382582694712197,0.9913849852218561,-4.265521599601183,1.5591836734693878,0.6413612565445026
2.3613896405376997,0.02529642397639116,-4.358220738863002,0.9915250833102278,0.02529642397639116,2.3613896405376997,0.9915250833102278,-4.358220738863002,1.5612244897959184,0.6405228758169934
2.349531061922689,0.022951781794279348,-4.450681099683656,0.9916569009749966,0.022951781794279348,2.349531061922689,0.9916569009749966,-4.450681099683656,1.563265306122449,0.639686684073107
2.350264090772849,0.020600734710165606,-4.542902463512445,0.9917784155837166,0.020600734710165606,2.350264090772849,0.9917784155837166,-4.542902463512445,1.5653061224489797,0.6388526727509778
2.3681998783352394,0.018290501898391938,-4.634884353878062,0.9918878140407589,0.018290501898391938,2.3681998783352394,0.9918878140407589,-4.634884353878062,1.5673469387755103,0.6380208333333333
2.4097813090786064,0.016085100355651194,-4.726626070661825,0.9919835222607424,0.016085100355651194,2.4097813090786064,0.9919835222607424,-4.726626070661825,1.569387755102041,0.6371911573472041
2.48347989759079,0.014074577572987211,-4.818126727811545,0.9920642293892236,0.014074577572987211,2.48347989759079,0.9920642293892236,-4.818126727811545,1.5714285714285714,0.6363636363636364
2.598521458093347,0.012385726651862732,-4.9093852937296765,0.9921289061805711,0.012385726651862732,2.598521458093347,0.9921289061805711,-4.9093852937296765,1.573469387755102,0.6355382619974059
2.7595812195556566,0.011183460883634224,-5.0004006333121165,0.992176817062149,0.011183460883634224,2.7595812195556566,0.992176817062149,-5.0004006333121165,1.5755102040816327,0.6347150259067358
2.956455464561806,0.01063562903805222,-5.091171550446519,0.9922075257146088,0.01063562903805222,2.956455464561806,0.9922075257146088,-5.091171550446519,1.5775510204081633,0.6338939197930142
3.159180864254318,0.010826813534171085,-5.181696829783485,0.9922208943864385,0.010826813534171085,3.159180864254318,0.9922208943864385,-5.181696829783485,1.579591836734694,0.6330749354005167
3.333924075412585,0.011692420587989758,-5.271975276809685,0.9922170774961789,0.011692420587989758,3.333924075412585,0.9922170774961789,-5.271975276809685,1.5816326530612246,0.632258064516129
3.463954335842107,0.013061918703722036,-5.362005755588023,0.9921965101522336,0.013061918703722036,3.463954335842107,0.9921965101522336,-5.362005755588023,1.5836734693877552,0.6314432989690721
3.550476638239418,0.014753283421082999,-5.451787223765583,0.9921598921971394,0.014753283421082999,3.550476638239418,0.9921598921971394,-5.451787223765583,1.5857142857142859,0.6306306306306306
3.602123536879384,0.016623509889042803,-5.54131876455429,0.9921081681814661,0.016623509889042803,3.602123536879384,0.9921081681814661,-5.54131876455429,1.5877551020408165,0.6298200514138816
3.627864525725447,0.018572740170739725,-5.630599615284282,0.9920425035910777,0.018572740170739725,3.627864525725447,0.9920425035910777,-5.630599615284282,1.5897959183673471,0.6290115532734274
3.6347877973801577,0.020533015953746382,-5.71962919198375,0.99196425770927,0.020533015953746382,3.6347877973801577,0.99196425770927,-5.71962919198375,1.5918367346938775,0.6282051282051282
3.628023759004944,0.022457309771108946,-5.808407109370373,0.9918749537564792,0.022457309771108946,3.628023759004944,0.9918749537564792,-5.808407109370373,1.5938775510204082,0.6274007682458387
3.6111964108285575,0.024312011154104,-5.896933195797672,0.9917762472184528,0.024312011154104,3.6111964108285575,0.9917762472184528,-5.896933195797672,1.5959183673469388,0.6265984654731458
3.586869958121814,0.02607226951984861,-5.985207503026123,0.991669893473646,0.02607226951984861,3.586869958121814,0.991669893473646,-5.985207503026123,1.5979591836734695,0.6257982120051085
3.5568821982559484,0.027719175232517077,-6.073230311118835,0.9915577157311458,0.027719175232517077,3.5568821982559484,0.9915577157311458,-6.073230311118835,1.6,0.625
