s11a,s11m,s21a,s21m,s22m,s22a,s12m,s12a,wavelengths,freqs
3.056878093955298,0.0212523094352368,-1.4642654867230744,0.9908943510382335,0.0212523094352368,3.056878093955298,0.9908943510382335,-1.4642654867230744,1.5,0.6666666666666666
3.1526918456866757,0.022503502529611173,-1.5648986843648465,0.9908216140110638,0.022503502529611173,3.1526918456866757,0.9908216140110638,-1.5648986843648465,1.5020408163265306,0.6657608695652174
3.2236692160195477,0.02418034554915139,-1.6652238964301775,0.9907365730939774,0.02418034554915139,3.2236692160195477,0.9907365730939774,-1.6652238964301775,1.5040816326530613,0.6648575305291723
3.270828675708529,0.026128059898649966,-1.7652411062179694,0.9906422082700606,0.026128059898649966,3.270828675708529,0.9906422082700606,-1.7652411062179694,1.506122448979592,0.6639566395663956
3.2974949384548333,0.028218232504159977,-1.8649507556254399,0.9905416221709545,0.028218232504159977,3.2974949384548333,0.9905416221709545,-1.8649507556254399,1.5081632653061225,0.6630581867388362
3.3074773865351093,0.03035145461172809,-1.9643537513111782,0.9904379683212039,0.03035145461172809,3.3074773865351093,0.9904379683212039,-1.9643537513111782,1.510204081632653,0.6621621621621622
3.3042257157865835,0.03245291729292373,-2.0634514599555085,0.9903343815067109,0.03245291729292373,3.3042257157865835,0.9903343815067109,-2.0634514599555085,1.5122448979591836,0.6612685560053981
3.290580576015147,0.03446667746191482,-2.162245693742384,0.9902339114738847,0.03446667746191482,3.290580576015147,0.9902339114738847,-2.162245693742384,1.5142857142857142,0.6603773584905661
3.2687863879713897,0.03635075135335172,-2.260738686949477,0.9901394607666111,0.03635075135335172,3.2687863879713897,0.9901394607666111,-2.260738686949477,1.5163265306122449,0.6594885598923285
3.240588975608103,0.03807345144539237,-2.358933064230955,0.9900537276104862,0.03807345144539237,3.240588975608103,0.9900537276104862,-2.358933064230955,1.5183673469387755,0.6586021505376344
3.207343559953717,0.0396107953248188,-2.456831801328404,0.9899791548545518,0.0396107953248188,3.207343559953717,0.9899791548545518,-2.456831801328404,1.5204081632653061,0.6577181208053691
3.1701081720271356,0.04094470600662057,-2.554438179234049,0.9899178861271283,0.04094470600662057,3.1701081720271356,0.9899178861271283,-2.554438179234049,1.5224489795918368,0.6568364611260054
3.129717602769202,0.04206176239369845,-2.651755733270634,0.9898717300552419,0.04206176239369845,3.129717602769202,0.9898717300552419,-2.651755733270634,1.5244897959183674,0.6559571619812583
3.086839876404423,0.04295232364120478,-2.748788198735907,0.9898421328964948,0.04295232364120478,3.086839876404423,0.9898421328964948,-2.748788198735907,1.526530612244898,0.6550802139037433
3.042018883948171,0.04360990663436469,-2.845539454597564,0.989830159482394,0.04360990663436469,3.042018883948171,0.989830159482394,-2.845539454597564,1.5285714285714287,0.6542056074766355
2.9957066543364794,0.04403073580127704,-2.942013466407395,0.9898364820975166,0.04403073580127704,2.9957066543364794,0.9898364820975166,-2.942013466407395,1.530612244897959,0.6533333333333333
2.94828810429658,0.044213411533297,-3.0382142292811465,0.9898613769585358,0.044213411533297,2.94828810429658,0.9898613769585358,-3.0382142292811465,1.5326530612244897,0.6524633821571239
2.9001004646697837,0.0441586613694664,-3.1341457117157976,0.9899047280841421,0.0441586613694664,2.9001004646697837,0.9899047280841421,-3.1341457117157976,1.5346938775510204,0.6515957446808511
2.8514490677791313,0.043869149966625484,-3.2298118010812193,0.9899660384936262,0.043869149966625484,2.8514490677791313,0.9899660384936262,-3.2298118010812193,1.536734693877551,0.650730411686587
2.8026208170707294,0.043349331946422695,-3.3252162518546324,0.9900444484820328,0.043349331946422695,2.8026208170707294,0.9900444484820328,-3.3252162518546324,1.5387755102040817,0.649867374005305
2.753896431595149,0.0426053374376267,-3.4203626376707454,0.9901387605269113,0.0426053374376267,2.753896431595149,0.9901387605269113,-3.4203626376707454,1.5408163265306123,0.6490066225165563
2.7055624505543814,0.04164488441178881,-3.515254308137801,0.9902474700429873,0.04164488441178881,2.7055624505543814,0.9902474700429873,-3.515254308137801,1.542857142857143,0.6481481481481481
2.657923990917454,0.040477215370237726,-3.609894351083782,0.9903688010512647,0.040477215370237726,2.657923990917454,0.9903688010512647,-3.609894351083782,1.5448979591836736,0.6472919418758256
2.611319388029838,0.03911305910209963,-3.7042855605944713,0.9905007458952317,0.03911305910209963,2.611319388029838,0.9905007458952317,-3.7042855605944713,1.5469387755102042,0.646437994722955
2.5661381512286465,0.03756462169599195,-3.798430411089336,0.9906411082334975,0.03756462169599195,2.5661381512286465,0.9906411082334975,-3.798430411089336,1.5489795918367348,0.6455862977602107
2.5228441992999695,0.0358456155538134,-3.8923310376747526,0.9907875486974903,0.0358456155538134,2.5228441992999695,0.9907875486974903,-3.8923310376747526,1.5510204081632653,0.6447368421052632
2.4820072212744226,0.0339713419402736,-3.985989223126319,0.9909376325092301,0.0339713419402736,2.4820072212744226,0.9909376325092301,-3.985989223126319,1.5530612244897959,0.6438896189224704
2.444346424956156,0.031958853430907444,-4.0794063918497745,0.9910888781898015,0.031958853430907444,2.444346424956156,0.9910888781898015,-4.0794063918497745,1.5551020408163265,0.6430446194225722
2.410793189010597,0.029827240390300876,-4.172583610982713,0.991238806293267,0.029827240390300876,2.410793189010597,0.991238806293267,-4.172583610982713,1.5571428571428572,0.6422018348623854
2.3825826584802745,0.027598115562885276,-4.265521598520536,0.9913849869574357,0.027598115562885276,2.3825826584802745,0.9913849869574357,-4.265521598520536,1.5591836734693878,0.6413612565445026
2.361389615921455,0.025296422203271544,-4.35822073800019,0.9915250851765861,0.025296422203271544,2.361389615921455,0.9915250851765861,-4.35822073800019,1.5612244897959184,0.6405228758169934
2.3495310535947795,0.022951779902799754,-4.450681099050395,0.9916569029418056,0.022951779902799754,2.3495310535947795,0.9916569029418056,-4.450681099050395,1.563265306122449,0.639686684073107
2.350264104574229,0.02060073279740739,-4.542902463115913,0.9917784176207933,0.02060073279740739,2.350264104574229,0.9917784176207933,-4.542902463115913,1.5653061224489797,0.6388526727509778
2.368199921476059,0.01829050008603466,-4.634884353719022,0.9918878161188005,0.01829050008603466,2.368199921476059,0.9918878161188005,-4.634884353719022,1.5673469387755103,0.6380208333333333
2.4097813897462355,0.016085098794731807,-4.726626070738972,0.9919835243486337,0.016085098794731807,2.4097813897462355,0.9919835243486337,-4.726626070738972,1.569387755102041,0.6371911573472041
2.483480022975424,0.014074576449301832,-4.818126728117791,0.9920642314594391,0.014074576449301832,2.483480022975424,0.9920642314594391,-4.818126728117791,1.5714285714285714,0.6363636363636364
2.59852162845295,0.012385726178233069,-4.909385294254454,0.9921289082075385,0.012385726178233069,2.59852162845295,0.9921289082075385,-4.909385294254454,1.573469387755102,0.6355382619974059
2.7595814170845614,0.011183461252730483,-5.000400634041793,0.9921768190229872,0.011183461252730483,2.7595814170845614,0.9921768190229872,-5.000400634041793,1.5755102040816327,0.6347150259067358
2.956455646980767,0.010635630313881978,-5.091171551364878,0.9922075275894122,0.010635630313881978,2.956455646980767,0.9922075275894122,-5.091171551364878,1.5775510204081633,0.6338939197930142
3.1591809848695296,0.010826815557544577,-5.18169683087215,0.9922208961593859,0.010826815557544577,3.1591809848695296,0.9922208961593859,-5.18169683087215,1.579591836734694,0.6330749354005167
3.3339241159542636,0.011692423039204978,-5.271975278050021,0.9922170791532504,0.011692423039204978,3.3339241159542636,0.9922170791532504,-5.271975278050021,1.5816326530612246,0.632258064516129
3.4639543080730593,0.01306192126417729,-5.362005756959549,0.9921965116849658,0.01306192126417729,3.4639543080730593,0.9921965116849658,-5.362005756959549,1.5836734693877552,0.6314432989690721
3.550476563703138,0.014753285859717583,-5.451787225248742,0.9921598935985205,0.014753285859717583,3.550476563703138,0.9921598935985205,-5.451787225248742,1.5857142857142859,0.6306306306306306
3.6021234341005557,0.016623512060336684,-5.541318766129497,0.9921081694490048,0.016623512060336684,3.6021234341005557,0.9921081694490048,-5.541318766129497,1.5877551020408165,0.6298200514138816
3.6278644076243842,0.018572741987454712,-5.630599616933249,0.9920425047240151,0.018572741987454712,3.6278644076243842,0.9920425047240151,-5.630599616933249,1.5897959183673471,0.6290115532734274
3.6347876723252925,0.02053301736495496,-5.71962919368884,0.9919642587107871,0.02053301736495496,3.6347876723252925,0.9919642587107871,-5.71962919368884,1.5918367346938775,0.6282051282051282
3.628023632317956,0.022457310748633136,-5.808407111116539,0.9918749546304451,0.022457310748633136,3.628023632317956,0.9918749546304451,-5.808407111116539,1.5938775510204082,0.6274007682458387
3.6111962859521167,0.02431201168521347,-5.896933197570972,0.9917762479715018,0.02431201168521347,3.6111962859521167,0.9917762479715018,-5.896933197570972,1.5959183673469388,0.6265984654731458
3.5868698373102705,0.026072269602953956,-5.98520750481503,0.9916698941125919,0.026072269602953956,3.5868698373102705,0.9916698941125919,-5.98520750481503,1.5979591836734695,0.6257982120051085
3.556882082983441,0.027719174874204198,-6.073230312913165,0.9915577162654633,0.027719174874204198,3.556882082983441,0.9915577162654633,-6.073230312913165,1.6,0.625
