s11a,s11m,s12a,s12m,s21a,s21m,s22a,s22m,wavelengths,freqs
-3.039011285923728,0.025653635080239497,-1.7202912461600268,0.9906573563757582,-1.7201784666154434,0.9906488205628433,-3.0362732949033235,0.025725770479236045,1.5,0.6666666666666666
-3.0051556311933476,0.027618568300912905,-1.8204192999543356,0.990564655500163,-1.8203070258202296,0.990555812635654,-3.003230912915916,0.027706458199156403,1.5020408163265306,0.6657608695652174
-2.988745603424659,0.029664895325242868,-1.9202398919658772,0.9904673534832049,-1.9201280234905862,0.9904581413050106,-2.987582226085057,0.02976369663709391,1.5040816326530613,0.6648575305291723
-2.986442749818937,0.03171052519276627,-2.019754173765051,0.9903684011575492,-2.019642604565127,0.9903587804252133,-2.9859587692055443,0.03181588109513882,1.506122448979592,0.6639566395663956
-2.995350772785721,0.03369335311992717,-2.1189637186013974,0.990270698865173,-2.118852341010589,0.990260652436062,-2.995458218480922,0.03380142083651371,1.5081632653061225,0.6630581867388362
-3.013111544229793,0.03556650489021477,-2.217870504154475,0.9901770360401714,-2.217759213184973,0.9901665668987107,-3.013727022583172,0.035673917873626844,1.510204081632653,0.6621621621621622
-3.0378573804474516,0.03729450378458935,-2.316476886436634,0.9900900345867641,-2.3163655825262404,0.9900791638635029,-3.038905715761095,0.03739832128873033,1.5122448979591836,0.6612685560053981
-3.0681224748612443,0.038850445404772685,-2.414785565355571,0.990012097757283,-2.4146741566812033,0.9900008631534996,-3.0695371390223958,0.03894810834327873,1.5142857142857142,0.6603773584905661
-3.1027549903322513,0.04021398833544683,-2.5127995432752037,0.9899453661305897,-2.5126879482884568,0.9899338204202359,-3.104477226515369,0.04030328600786248,1.5163265306122449,0.6594885598923285
-3.140842913835001,0.041369939345170026,-2.610522078475078,0.989891681651182,-2.610410228704653,0.9898798905582994,-3.1428204469596834,0.04144898647518558,1.5183673469387755,0.6586021505376344
-3.1816554208022927,0.04230725376218129,-2.707956635461962,0.9898525597871838,-2.707844477967072,0.9898405988211074,-3.183841142679109,0.042374475690076685,1.5204081632653061,0.6577181208053691
-3.224597685222896,0.04301832148349306,-2.805106833530807,0.9898291693226208,-2.804994332239525,0.989817119787068,-3.2269484628137914,0.04307244502338554,1.5224489795918368,0.6568364611260054
-3.269176255188016,0.043498449362846255,-2.9019763944008257,0.9898223191720595,-2.901863529939185,0.9898102641298521,-3.271651897785247,0.043538496971707176,1.5244897959183674,0.6559571619812583
-3.3149723312613077,0.0437454795237316,-2.99856908931587,0.989832452047612,-2.998455857630279,0.9898204730547385,-3.3175347012673506,0.043770764876331414,1.526530612244898,0.6550802139037433
-3.3616207625281596,0.04375950286027901,-3.0948886862022067,0.9898596451209453,-3.094775096732549,0.9898478200998609,-3.364232993128861,0.04376962654188158,1.5285714285714287,0.6542056074766355
-3.408793031640971,0.04354264034534388,-3.190938897833156,0.9899036179891066,-3.190824971975377,0.9898920199667331,-3.4114188099085276,0.043537485037159165,1.530612244897959,0.6533333333333333
-3.456183386755129,0.04309885075727116,-3.2867233347626392,0.989963758612949,-3.286609104775372,0.9899524543166198,-3.4587862654865655,0.04307857594654457,1.5326530612244897,0.6524633821571239
-3.5034938277346432,0.04243389228361802,-3.3822454502012778,0.9900391020641044,-3.382130958713629,0.9900281515530511,-3.5060365221732086,0.04239892780683945,1.5346938775510204,0.6515957446808511
-3.550424774072076,0.04155508451390057,-3.477508513111134,0.9901284224930595,-3.4773938116181093,0.9901178763640573,-3.5528684317510555,0.04150612470021719,1.536734693877551,0.650730411686587
-3.5966600855643986,0.04047132865409592,-3.5725155632545853,0.9902302216110681,-3.572400710190493,0.9902201196398853,-3.5989634757426296,0.04040932550455288,1.5387755102040817,0.649867374005305
-3.6418530577350894,0.03919304178226201,-3.6672693829849456,0.9903427745102837,-3.667154440956388,0.99033314472617,-3.6439716440694405,0.03911919807117033,1.5408163265306123,0.6490066225165563
-3.6856090331203517,0.03773214613395886,-3.7617724718652292,0.9904641675925228,-3.7616575047657506,0.9904550264816788,-3.6874938673286377,0.037647908632854665,1.542857142857143,0.6481481481481481
-3.727463399946109,0.036102098741517236,-3.856027026589887,0.9905923390708045,-3.85591209729885,0.9905836928238193,-3.7290597577093214,0.03600915240891677,1.5448979591836736,0.6472919418758256
-3.7668525538792417,0.03431797587397666,-3.9500349266508503,0.9907251217080054,-3.949920095767446,0.9907169678918166,-3.76809821775583,0.03421824059673946,1.5469387755102042,0.646437994722955
-3.8030743197144234,0.03239663656149653,-4.043797726342509,0.9908602870494673,-4.043683051855422,0.9908526160122427,-3.803897405233422,0.03229226881338841,1.5489795918367348,0.6455862977602107
-3.835232695243239,0.03035700506656808,-4.13731665348092,0.99099559002953,-4.137202190844814,0.9909883856463885,-3.8355489309053747,0.030250407711500244,1.5510204081632653,0.6447368421052632
-3.8621593979016,0.028220537369683708,-4.230592614745925,0.9911288126695259,-4.230478416766617,0.9911220525223472,-3.861868847398979,0.028114381773039935,1.5530612244897959,0.6438896189224704
-3.8823015059023103,0.026011977818084096,-4.323626207100002,0.9912578057257475,-4.323512323341554,0.9912514611620319,-3.881284966653293,0.02590924348356455,1.5551020408163265,0.6430446194225722
-3.893561146581912,0.023760578698941784,-4.416417734492837,0.9913805275207468,-4.416304210346427,0.9913745641004605,-3.891677137961597,0.02366461640751293,1.5571428571428572,0.6422018348623854
-3.8930729997103595,0.021502058934938527,-4.5089672291039635,0.9914950795797953,-4.50885410499667,0.9914894580713639,-3.8901580056828893,0.02141668189010234,1.5591836734693878,0.6413612565445026
-3.8769201245777323,0.0192817174523602,-4.6012744766374265,0.9915997388375267,-4.601161787810857,0.9915944165426221,-3.872798998173565,0.019211314693150985,1.5612244897959184,0.6405228758169934
-3.8398541374951063,0.017159218370323994,-4.693339045375838,0.991692986112173,-4.693226822358873,0.9916879180120317,-3.834376886405949,0.017108847459568928,1.563265306122449,0.639686684073107
-3.7752934501106776,0.015215275402615866,-4.785160318721676,0.9917735302803687,-4.785048588201476,0.9917686695935356,-3.7684307511900705,0.015190584746129122,1.5653061224489797,0.6388526727509778
-3.6763748147733226,0.013558628070621472,-4.876737530669065,0.9918403274730949,-4.876626316267082,0.9918356255131824,-3.668413666562825,0.013565226272403797,1.5673469387755103,0.6380208333333333
-3.539502568454662,0.01232598850914557,-4.968069803333497,0.9918925946319873,-4.967959125865413,0.9918880002569262,-3.531311283811877,0.012367626080059053,1.569387755102041,0.6371911573472041
-3.3709046776645444,0.011658568227871983,-5.059156185352505,0.9919298171640191,-5.059046062499185,0.9919252762796242,-3.363967928132664,0.011734040993833612,1.5714285714285714,0.6363636363636364
-3.1908628865377824,0.011644674979613596,-5.149995690009405,0.991951750805406,-5.149886135670171,0.9919472062690898,-3.186643559240091,0.011745739857287265,1.573469387755102,0.6355382619974059
-3.026081234548369,0.012264097717183127,-5.24058733212723,0.991958418214445,-5.240478355869164,0.9919538101677934,-3.0251107708430953,0.012377795266243932,1.5755102040816327,0.6347150259067358
-2.8947562263375897,0.01339727576622156,-5.330930163171892,0.9919501008726462,-5.330821770043862,0.9919453672000736,-2.896549386437186,0.013511099951892546,1.5775510204081633,0.6338939197930142
-2.80110175241345,0.014889137455574733,-5.4210233042341045,0.9919273268009773,-5.420915494870595,0.9919224033327667,-2.8047826951389765,0.014994127284308593,1.579591836734694,0.6330749354005167
-2.7406308338475767,0.01660142361533822,-5.510865976639357,0.9918908543537546,-5.510758747287214,0.9918856746154406,-2.7454192745942287,0.016692195428579762,1.5816326530612246,0.632258064516129
-2.7063767160502694,0.018429294778452347,-5.600457529767412,0.9918416522824205,-5.600350871808256,0.9918361469493406,-2.7117226836961175,0.018502936472304932,1.5836734693877552,0.6314432989690721
-2.691945545289974,0.02029781327701595,-5.68979746547851,0.9917808763407803,-5.689691364257215,0.9917749728532204,-2.6974968329453923,0.02035289859676852,1.5857142857142859,0.6306306306306306
-2.6923194423801733,0.02215375812476914,-5.778885458476003,0.9917098429963541,-5.778779891631131,0.9917034658342954,-2.6978584299663435,0.022189730387489726,1.5877551020408165,0.6298200514138816
-2.703776634423562,0.023958659446576627,-5.867721372098616,0.9916300011219844,-5.867616307911883,0.9916230729630088,-2.709169948573578,0.023975490803267514,1.5897959183673471,0.6290115532734274
-2.7236009239688213,0.025683988302096332,-5.9563052693998495,0.9915429026862063,-5.9562006657047855,0.9915353462956843,-2.7287664344290747,0.02568199831937,1.5918367346938775,0.6282051282051282
-2.7498058478451832,0.027308054405936474,-6.044637419745601,0.991450173394366,-6.044533223690232,0.9914419137418747,-2.7546924147727974,0.027287813010385444,1.5938775510204082,0.6274007682458387
-2.780923005236047,0.028814039632554356,-6.132718301416398,0.9913534839100464,-6.132614449950871,0.991344449980889,-2.7854982972452844,0.028776313316960123,1.5959183673469388,0.6265984654731458
-2.81585074666944,0.030188745172627065,-6.220548600673053,0.9912545219966211,-6.22044502131504,0.9912446480193207,-2.8200939208017615,0.0301344649896061,1.5979591836734695,0.6257982120051085
-2.8537485240440303,0.03142178068121491,-6.308129207574034,0.9911549656833093,-6.308025818954378,0.991144191914198,-2.857645796927861,0.03135202081956574,1.6,0.625
