s11a,s11m,s21a,s21m,s31a,s31m,s41a,s41m,s12a,s12m,s22a,s22m,s32a,s32m,s42a,s42m,s13a,s13m,s23a,s23m,s33a,s33m,s43a,s43m,s14a,s14m,s24a,s24m,s34a,s34m,s44a,s44m,wavelengths,freqs
2.5846112763685127,0.011738076998840438,-0.61663442581145,0.007228531522215764,1.342265851651973,0.674137469864003,-0.2285940202966082,0.7359819651639131,-0.6166344308595274,0.00722853163412904,2.5846112697534145,0.011738077145043182,-0.22859402009661262,0.7359819648722884,1.3422658517734105,0.6741374698262517,1.3420618462854275,0.6742883950190843,-0.228910083940377,0.7359814968106855,2.5639923231821324,0.012133309921728144,-0.6098926532957297,0.007632223842147425,-0.22887806635624589,0.735933465283827,1.3420029336576877,0.6742828791811178,-0.6099265119580224,0.007634167825108479,2.563989291377636,0.012137370008119094,1.5,0.6666666666666666
2.563181782486134,0.009796859677233769,-1.6311033807403197,0.0065296322501387696,0.7597905661464601,0.6767912353411882,-0.8105747867745665,0.7338353538367003,-1.6311033829661563,0.0065296323635131255,2.5631817616824972,0.00979685967824081,-0.8105747867859159,0.7338353536804474,0.7597905662940804,0.6767912353253542,0.7595862498254444,0.6769318865281406,-0.810874132006162,0.7338263819956181,2.5393814717089995,0.010075028040129087,-1.6246292941823595,0.006884673459861034,-0.8108041516183914,0.7338314589533039,0.7595734404376524,0.6768940978344804,-1.6248540806585003,0.0068855494723932585,2.539031158051038,0.010074331165921172,1.5020408163265306,0.6657608695652174
2.6444949835737352,0.008988083919258276,-2.697475684620642,0.005835307863332704,0.17872454798179493,0.6791727412798129,-1.3909367007642974,0.7318448505170752,-2.6974756825000656,0.005835307974007021,2.644494969892605,0.008988083722791581,-1.3909367010529123,0.7318448504509214,0.17872454812401473,0.6791727412922703,0.17852149407241577,0.6793018386409692,-1.3912178076031843,0.7318282557434822,2.623438232535276,0.009195600562537714,-2.69211641845509,0.006145990432498451,-1.3912000783896883,0.7318762661637958,0.17856743022722713,0.6792808409382654,-2.6923556585490163,0.006145413002711235,2.6235906739197876,0.009192569694404767,1.5040816326530613,0.6648575305291723
2.6797660287211245,0.00931480657012906,-3.8058649565972615,0.005368479263820176,-0.4005772971382279,0.6813419758478907,-1.9698858047545325,0.7299760516041837,-3.805864948915303,0.005368479363702583,2.6797660347259753,0.00931480633143173,-1.9698858052722976,0.7299760515487006,-0.4005772970282747,0.6813419758777804,-0.40077568252034645,0.681458690328805,-1.9701479745460773,0.7299532622771991,2.662674970880855,0.00954101116336334,-3.802352943026545,0.0056544360250615645,-1.9702009802721554,0.7299816164905387,-0.40073167356580053,0.6814796405262952,-3.802429994478408,0.005653132811483784,2.6629595509574013,0.009542925084777705,1.506122448979592,0.6639566395663956
2.60652289653623,0.009702620060758204,-4.909887581830693,0.005201274824637964,-0.978018476904982,0.6835048591156757,-2.5475013577134664,0.7280947986655607,-4.90988756941051,0.005201274906618332,2.606522915978755,0.009702619875356429,-2.547501358301469,0.7280947985754982,-0.9780184768351454,0.6835048591431835,-0.9782081652894697,0.6836101340035498,-2.547744221179278,0.7280670573297146,2.5894362750680755,0.009976602237531221,-4.908006222997139,0.005487279294848221,-2.5477980524731607,0.7280422448354914,-0.9782205239559444,0.6836447654429365,-4.907885410471051,0.005486309169107688,2.5892090817656337,0.009979225399050707,1.5081632653061225,0.6630581867388362
2.4741389091357044,0.009403440189895293,-5.95883338771878,0.00518064408712631,-1.5537741345335394,0.6858033275021602,-3.1236903322424836,0.7260952509491423,-5.9588333726845,0.005180644150230978,2.474138939470663,0.009403440116487412,-3.1236903327159156,0.7260952508555982,-1.5537741344885307,0.685803327509791,-1.5539531073535593,0.6858994847411617,-3.1239137549548714,0.7260639813064028,2.453576035768311,0.00970582401425189,-5.957694639390932,0.005479762328919219,-3.1239022722450582,0.7260197538617326,-1.5540033635068624,0.6859041081229456,-5.957511978375363,0.005479836361534809,2.4533104064269255,0.009703238302706562,1.510204081632653,0.6621621621621622
2.339845917038249,0.008334613137036127,-6.9351064725048115,0.005054063887666617,-2.128062447314641,0.6882191892318485,-3.6983115798866826,0.7239815048030623,-6.9351064561389215,0.005054063936072633,2.339845952119568,0.008334613241147808,-3.6983115801341295,0.7239815047961544,-2.1280624472672596,0.6882191892153592,-2.1282311292886313,0.6883081692985082,-3.6985160422155454,0.7239478693395643,2.3123349021292725,0.008622355442023034,-6.934259227994929,0.005360544050821603,-3.698456681642064,0.7239394064344872,-2.12825515703407,0.6882784982971923,-6.934211162439292,0.005361402338174675,2.312672553995537,0.008619927766895455,1.5122448979591836,0.6612685560053981
2.247710013012091,0.0067591190066545155,-7.845006640319941,0.004628378317262839,-2.700955034513332,0.6906519279663339,-4.271317361318166,0.7218274743868472,-7.845006622507359,0.004628378356148519,2.2477100359955133,0.006759119257657539,-4.271317361353264,0.7218274745545036,-2.700955034440904,0.690651927935901,-2.701114570669159,0.69073441934998,-4.271503015122155,0.7217922953671772,2.210047533159436,0.006986053178123618,-7.844821360197261,0.0049220025418228565,-4.27147072458295,0.7218280824975953,-2.701084183970349,0.6907086910782662,-7.844978666035571,0.0049224566819374635,2.2103471428772283,0.006989304775406991,1.5142857142857142,0.6603773584905661
2.252671312437144,0.004998869501915445,-8.694780464133471,0.0038255830720164696,-3.2723978574053545,0.6930397573670475,-4.842764205851987,0.719680818320762,-8.69478044346127,0.003825583106662719,2.252671300644402,0.0049988697522799904,-4.8427642057879865,0.7196808186852287,-3.2723978573038752,0.693039757340038,-3.272548706808374,0.6931156346580055,-4.842931225660229,0.7196452609495776,2.2004024314876354,0.005129628055050696,-8.696681038948833,0.0040795894069759805,-4.842964324435198,0.7196794724278206,-3.2725039875995074,0.6931253262142141,-8.696850945607878,0.00407882472025562,2.1996908474082475,0.0051310831063212,1.5163265306122449,0.6594885598923285
2.4900308723392532,0.0034891786697610646,-9.46698695320515,0.0026797057492941143,-3.8423443890874385,0.695383120784813,-5.412712303962822,0.7175256494615548,-9.466986926061832,0.002679705785600403,2.490030813421343,0.003489178728515401,-5.412712303929837,0.7175256499498323,-3.84234438897157,0.6953831207741692,-3.84248614752763,0.6954520737369204,-5.412861625725119,0.7174905539901373,2.4236012185713838,0.0034771593845759163,-9.475366935958807,0.0028670892633140734,-5.412917021666893,0.7174816854389364,-3.8424824087347065,0.6954837578689065,-9.475106577191388,0.002866042702157521,2.4236263392187793,0.00347308595858486,1.5183673469387755,0.6586021505376344
3.051444644654206,0.003286465805090896,-10.011373406150117,0.0013567663807632264,-4.410803488238803,0.6976798842394002,-5.9811549591889115,0.715331023374556,-10.011373364824482,0.0013567664320289783,3.051444626804624,0.003286465639076912,-5.981154959238324,0.715331023845235,-4.410803488130889,0.6976798842464149,-4.410935009242228,0.6977417867225162,-5.981286805406034,0.7152965789498827,3.023847330092213,0.003162935537190734,-10.045476412687396,0.0014483812105723726,-5.981296400135744,0.7152573419580807,-4.4109748199758725,0.6977559146248433,-10.044510189895115,0.0014492202170372495,3.0248249911232756,0.0031660649366389345,1.5204081632653061,0.6577181208053691
3.3672497591795443,0.004819622179127572,-9.341098864099495,0.0008329124889887904,-4.977759854662588,0.6998910677457088,-6.548059507903195,0.7131050909591813,-9.341098916122505,0.0008329125446747246,3.367249787284432,0.004819622106696561,-6.5480595079643535,0.7131050912761,-4.977759854577494,0.6998910677600267,-4.977879844823893,0.699946310542377,-6.548173189376238,0.7130721621934881,3.3684822431524446,0.00475700183991093,-9.337726917994145,0.0008118915535834078,-6.548127088168952,0.7130510977828168,-4.977913040263533,0.6999263953283896,-9.340234201090505,0.0008116453877731587,3.367472233939909,0.004758210305511149,1.5224489795918368,0.6568364611260054
3.3511781299804655,0.006840840731005796,-9.457404741067865,0.001996659731778908,-5.543110912063061,0.7019978360715413,-7.113447538915512,0.7108775355171162,-9.457404773018627,0.001996659745141565,3.3511781483617566,0.0068408408161906315,-7.113447538841199,0.7108775356238473,-5.54311091199955,0.7019978360789866,-5.543218510590386,0.7020468146693755,-7.113543449407796,0.7108476631000232,3.351373285616921,0.006873372127706394,-9.418932194584436,0.002063430809458316,-7.113498923931422,0.7108693529131735,-5.543205249326058,0.7020182113028299,-9.418387670790311,0.002061176453349338,3.3513454425951483,0.006867667532712126,1.5244897959183674,0.6559571619812583
3.2047917031758835,0.008480458209342455,-10.126223046191008,0.003162444343578912,-6.106743247053794,0.7040731972008101,-7.677388615009857,0.7086344353292984,-10.126223065045314,0.0031624443469331896,3.204791707493176,0.008480458365662838,-7.6773886146809955,0.7086344352719572,-6.106743246996411,0.7040731971926268,-6.106836750287139,0.7041161862710429,-7.6774682225239905,0.7086084957583864,3.199475634800587,0.008593109240106908,-10.090812812538838,0.0033192529275780395,-7.677478712811483,0.7086455635264806,-6.106794912238947,0.7041137708716142,-10.089923558984683,0.0033198514213124484,3.200238735368846,0.00859367628648583,1.526530612244898,0.6550802139037433
3.02031113543595,0.009348610025271646,-10.886954063536503,0.00399158554942108,-6.66868162903896,0.7062570131755542,-8.239894385135017,0.7063018215798755,-10.886954077033405,0.003991585549230327,3.020311130768144,0.009348610199925719,-8.239894384548286,0.7063018214677143,-6.668681628969204,0.7062570131536123,-6.668758958588528,0.706295731670284,-8.239958756312998,0.7062798906612536,3.0087303344742864,0.009506516717054055,-10.852264095475164,0.004217476616774659,-8.240010468533056,0.7062875656950124,-6.668739895772194,0.7063214267827426,-10.852132988859527,0.004220933534254781,3.0085735216578837,0.009513855551539371,1.5285714285714287,0.6542056074766355
2.8428705182657508,0.009371515748118661,-11.685499683567118,0.0043847273293025485,-7.2291303773994,0.7086342451091402,-8.800843892474726,0.7038229219068348,-11.685499694445122,0.004384727328199279,2.842870503626726,0.009371515921800551,-8.80084389176227,0.7038229218411497,-7.22913037730613,0.7086342450837179,-7.229192376193058,0.7086711057017969,-8.800893043222246,0.7038047591166834,2.8252067947565203,0.009531179939806319,-11.64948821677877,0.004653369971205222,-8.80092324958313,0.7037746197831335,-7.2292176384753715,0.708693235594415,-11.650208976890289,0.004655463186857313,2.8243831065387965,0.009528343517838786,1.530612244897959,0.6533333333333333
2.7055015175178774,0.008733116292877886,-12.517791298464395,0.004325053924200992,-7.788329463932511,0.7111369861959922,-9.360061393198155,0.7012535673168184,-12.517791307970105,0.004325053923969119,2.7055014890068034,0.008733116386740635,-9.360061392571467,0.7012535673297361,-7.7883294638187035,0.7111369861800074,-7.788378497138064,0.7111721917974517,-9.360093679646244,0.701239393393558,2.6824298963028883,0.008854728011821023,-12.47866975289348,0.00460724319457525,-9.360066642387913,0.7012082388092612,-7.788416527346942,0.7111648921562154,-12.479459613815568,0.004604872058064736,2.6829677656052153,0.008846988612346958,1.5326530612244897,0.6524633821571239
2.634574430541041,0.007833632248816853,-13.39898517572124,0.0038791770275835636,-8.346348148789234,0.7135805025589399,-9.917498417935388,0.6987575999404069,-13.398985184665616,0.003879177029926225,2.6345743960940733,0.007833632167485083,-9.917498417579884,0.6987575999741599,-8.346348148669808,0.7135805025597078,-8.34638391098333,0.7136129612350491,-9.91751171597229,0.6987496848337844,2.6089529069116435,0.007890424259776922,-13.354496003768238,0.0041444569336975545,-9.917460530474166,0.698754484812406,-8.346390115863453,0.7135855586617185,-13.354394379600892,0.004139834466035868,2.6097734934569643,0.007897585030070065,1.5346938775510204,0.6515957446808511
2.629485458713457,0.00710644899396754,-14.366077882027344,0.003215068204272204,-8.903015995881862,0.7158126310258478,-10.47333432032192,0.6964806657968071,-14.366077890434111,0.003215068210481029,2.6294854383131256,0.0071064487798610555,-10.47333432029518,0.6964806657425047,-8.903015995774243,0.7158126310407872,-8.903036434473165,0.7158423556626476,-10.47332992948906,0.6964829595149207,2.607225519954433,0.007110487359489289,-14.312803806388139,0.0034351153824763356,-10.47331553558066,0.6965172819274941,-8.903004158823581,0.715826990376969,-14.311558430329407,0.003432864228238953,2.6059149737023333,0.007114157111410728,1.536734693877551,0.650730411686587
2.6544482686887663,0.006720968789399396,-15.474462470591568,0.002626589995728137,-9.458063192498294,0.7178415653916637,-11.027868771411354,0.6944147119819789,-15.474462477542978,0.002626590006157946,2.65444826900941,0.006720968570166206,-11.02786877161527,0.6944147117588862,-9.45806319241164,0.7178415654105696,-9.458066118027148,0.7178694010942295,-11.027852356003098,0.694429509307832,2.638522023257227,0.006714525091142466,-15.410796268174018,0.002782724904426155,-11.027891258958055,0.6944525621235543,-9.45803313228053,0.7178842226179931,-15.409149251307921,0.0027844694760433162,2.6385551558399727,0.006704378987460297,1.5387755102040817,0.649867374005305
2.6745315775802574,0.006603682468865411,-16.69613283732551,0.002465262436232322,-10.011343413847834,0.719825822184379,-11.581285842122446,0.6923893718729328,-16.696132840850883,0.002465262447266207,2.674531592906052,0.006603682301092819,-11.58128584237449,0.6923893714925654,-10.011343413778818,0.719825822195889,-10.01132634626135,0.7198540220825062,-11.581263056859212,0.6924155189341784,2.6630111531620773,0.006615078823559202,-16.6336276973651,0.002569380562254177,-11.58130934181657,0.6924005059449685,-10.011331778230847,0.719881957548746,-16.632734261516077,0.0025736568541322824,2.6644027139998214,0.006619087666150378,1.5408163265306123,0.6490066225165563
2.6651792221493094,0.006649727711847957,-17.83052619624139,0.0027691907775163034,-10.562940855026612,0.7219407096543842,-12.13350814844764,0.6902081047505211,-17.830526197144437,0.0027691907832982834,2.6651792476075897,0.006649727637925087,-12.133508148597762,0.6902081043188782,-10.562940854962598,0.7219407096522089,-10.5629041882995,0.721973258493915,-12.133480923336801,0.6902428671041806,2.6546944327557322,0.006690638095017379,-17.781039113649555,0.002871313025096781,-12.13348046219803,0.6902074758682694,-10.562942068899307,0.7219810573831361,-17.781498550250493,0.0028758052346178815,2.6536953873261093,0.006697676844460029,1.542857142857143,0.6481481481481481
2.6046921246203514,0.006654887824915373,-18.78662311598893,0.003199912044781649,-11.113080254377458,0.7242464180740982,-12.684278826290415,0.6878053128686379,-18.786623116211633,0.0031999120432579355,2.604692147310287,0.006654887879806794,-12.684278826302972,0.687805312530838,-11.113080254303698,0.724246418060291,-11.113028423465188,0.7242855862657784,-12.684245634443137,0.6878469010254166,2.591468618029448,0.006720215061190209,-18.746376449364732,0.0033362767792400284,-12.68419853820543,0.6878323730244686,-11.113053673513534,0.7242636486857781,-18.747620197816364,0.003337732117662965,2.5907857243266816,0.006712272771099606,1.5448979591836736,0.6472919418758256
2.4952875937194663,0.006293831600616875,-19.607572413315786,0.0034681271624474696,-11.661942399386005,0.7266688083605584,-13.233390159196261,0.6852816558058612,-19.607572413270894,0.0034681271531666795,2.4952875994545836,0.006293831720131368,-13.233390159156354,0.6852816556724849,-11.661942399294665,0.726668808343939,-11.66187871039718,0.7267137234078298,-13.233348384384527,0.6853305584239721,2.476948802675025,0.0063624483574154685,-19.5716908850805,0.0036435734890394467,-13.233309167197719,0.6853540300693012,-11.661861439179273,0.726688046344465,-19.572511595179975,0.0036408843894791976,2.478220687543366,0.006359949880602024,1.5469387755102042,0.646437994722955
2.3714851017809435,0.005316133166593737,-20.326270537247705,0.0034546105982999078,-12.209557410608662,0.7290882097453807,-13.780844699692523,0.6827955420638917,-20.32627053669582,0.003454610581611153,2.371485087281124,0.0053161332389878874,-13.780844699744566,0.6827955421562651,-12.209557410502764,0.7290882097362957,-12.209481845153665,0.7291380282256038,-13.780793935789779,0.6828542458700597,2.345421619390149,0.005364908715283365,-20.29248070139206,0.003657456120802882,-13.780808737799992,0.6828886883940513,-12.20944268424099,0.7291388011457998,-20.292181654725017,0.003654047030939066,2.345580691231285,0.0053725103756195845,1.5489795918367348,0.6455862977602107
2.3255006984892788,0.0037097824533480752,-20.938997972931286,0.0031839662691649628,-12.75584660836382,0.7314357563918498,-14.326813389968153,0.6804236419416505,-20.938997970604934,0.0031839662458421126,2.3255006685994752,0.0037097824157466585,-14.326813390217085,0.6804236421853928,-12.755846608255963,0.7314357563958902,-12.755758903231438,0.731490934977652,-14.326757066296196,0.6804941970877546,2.284921815998534,0.0037024312438653437,-20.907355685783706,0.0033995755658849584,-14.326809557216453,0.6804995572979408,-12.755743435291086,0.7315171907174578,-20.90643877655192,0.0033994400333758213,2.283103967092552,0.003701609934228034,1.5510204081632653,0.6447368421052632
2.7470620125037275,0.0021072832373797406,-21.41355165506525,0.0028284111607773587,-13.300732606419551,0.7337125073329981,-14.871457303438008,0.678119713042695,-21.413551648359885,0.0028284111347766376,2.7470620141540865,0.0021072830948773427,-14.871457303871022,0.6781197133113501,-13.300732606323647,0.7337125073479355,-13.300633012980066,0.7337735120065071,-14.871399866646787,0.6782016855351375,2.7129807266480457,0.001979224404591274,-21.387733548924718,0.0030461871161012485,-14.871429533072316,0.6781713944299174,-13.300658961669983,0.7337949964764293,-21.387460939876625,0.0030487548809543068,2.715159869070881,0.0019751477764445497,1.5530612244897959,0.6438896189224704
3.616444392986787,0.002949920630920249,-21.745650417379892,0.002701593338693503,-13.844195437286151,0.7359411808494387,-15.414800478941654,0.6757914602272562,-21.745650404303493,0.002701593320242678,3.616444450511146,0.0029499206338003724,-15.41480047942035,0.675791460414664,-13.844195437209784,0.7359411808669922,-13.844083839775225,0.736008710767926,-15.414743925756335,0.6758830296994955,3.661992424631236,0.0028932771384730474,-21.730380581983248,0.0029170205728175384,-15.414715867112054,0.6758516702790138,-13.844121567925379,0.7360006179526694,-21.731097784217276,0.002918161243659275,3.661278000883774,0.0028980335833074505,1.5551020408163265,0.6430446194225722
3.6986111989730834,0.00534060567276112,-22.065209493317514,0.0030397122959441684,-14.386241398516137,0.7381233806299043,-15.956764647600314,0.6733979367231511,-22.065209477658644,0.00303971229540563,3.6986112252801333,0.0053406057987618145,-15.956764647930651,0.673397936798409,-14.386241398457532,0.7381233806395568,-14.386118405835125,0.7381986452413793,-15.956708887815577,0.6734979651978833,3.7259451012736813,0.005415091201219378,-22.055553786250158,0.003263369862649389,-15.956654247658086,0.6735016688262322,-14.386124697762883,0.7381698047143946,-22.055993767796807,0.003261670467139198,3.7252656576870855,0.005412284026638758,1.5571428571428572,0.6422018348623854
