s11a,s11m,s21a,s21m,s31a,s31m,s41a,s41m,s12a,s12m,s22a,s22m,s32a,s32m,s42a,s42m,s13a,s13m,s23a,s23m,s33a,s33m,s43a,s43m,s14a,s14m,s24a,s24m,s34a,s34m,s44a,s44m,wavelengths,freqs
2.976237340919566,0.01334893214449768,-1.2025912379365455,0.009754065862736205,2.791538525490349,0.6001500303267517,1.2101470642328929,0.7877940314731773,-1.202591243707583,0.009754065526046928,2.97623735650925,0.013348930255988423,1.2101470617664232,0.7877940293027872,2.791538525515608,0.6001500304735851,2.7918997718407152,0.5996656486913426,1.209476868848862,0.7874174001365676,2.8849602314974123,0.013845443482669504,-1.1678125264950443,0.012529320620952094,1.209456137863204,0.7874795977727119,2.7919713133939457,0.5995940034006108,-1.1739096741714694,0.012528334287064806,2.8831017742478346,0.013869150866079571,1.5,0.6666666666666666
2.9252620173479404,0.01174752835514501,-2.0687979228683915,0.007990203263733437,2.201180945005065,0.6047513668536134,0.6187085691361635,0.7861250751545587,-2.0687979307292506,0.007990202934511187,2.925262143448285,0.011747527586244234,0.6187085655739201,0.78612507288597,2.201180944882477,0.604751366980111,2.201580033774105,0.6042572769816792,0.6180530332349726,0.7857562212417774,2.7963348662232272,0.011496612187199573,-2.0270953076684286,0.010351933082845786,0.6179754721402541,0.7857610313359247,2.201706251188335,0.6042716849568597,-2.030154758236967,0.010284369953200116,2.7949186316327572,0.011461507338035302,1.5020408163265306,0.6657608695652174
3.0247282002711997,0.010273784946479255,-2.946984225168617,0.0058452211235948005,1.6097135337506325,0.609264914755228,0.028981285429832353,0.7844714888081953,-2.9469842370427592,0.0058452208020136264,3.0247283153461613,0.01027378557778676,0.028981281604930086,0.7844714865127846,1.6097135335666952,0.609264914811281,1.61016155872092,0.6087765479937017,0.028333722654357678,0.7841040579159542,2.9263408686546146,0.0092438670747272,-2.8940730769514715,0.007681321152387399,0.02830250729093289,0.7840517904982921,1.6101846816167273,0.6088472480060328,-2.888224675926771,0.007625550367655217,2.9308638718945805,0.009247815575798134,1.5040816326530613,0.6648575305291723
3.219796383536003,0.010694304561548521,-3.846181773655268,0.0036011470337410437,1.0182049402658717,0.6126513128556551,-0.5590658238962163,0.7829663692408162,-3.8461817956139623,0.003601146724669468,3.2197964117472173,0.010694305724664309,-0.5590658270648327,0.7829663674009584,1.018204940115739,0.6126513128412874,1.018687469653479,0.61217852657664,-0.559701832122909,0.7825978057896593,3.2208202662078076,0.009685885894409286,-3.771145274030026,0.004864137874061646,-0.5596540536384838,0.782557679763014,1.01859618602697,0.612217321965765,-3.757613034022785,0.0048776150404290205,3.2176029964266215,0.009717812793596174,1.506122448979592,0.6639566395663956
3.27549871446004,0.012921742678128987,-4.809390901779064,0.0016000782570700718,0.4284682728713987,0.6147032246148781,-1.1456465772801514,0.7816746329492212,-4.809390968445655,0.001600077970920348,3.275498665961182,0.01292174394479667,-1.1456465794114084,0.7816746323524919,0.4284682728233368,0.614703224564425,0.4289753647118723,0.6142461308812942,-1.1462723338020422,0.7813040804407316,3.2920040524393457,0.01260082270829724,-4.668800475167593,0.002328010213810991,-1.1462087239611813,0.7813223690082549,0.4288834249753125,0.6142120127837453,-4.660738715644962,0.002387126609211718,3.290758409858643,0.012557173409001126,1.5081632653061225,0.6630581867388362
3.1750223835332854,0.014956191763785815,-6.803839738602738,0.0002436540181957587,-0.15823457569513044,0.6160432506721031,-1.7309865774269664,0.780484938050977,-6.803840925183935,0.00024365399932199566,3.175022276533,0.014956192363148416,-1.730986578960901,0.7804849392262345,-0.15823457563817261,0.6160432506413691,-0.15770839403146678,0.6156014891778954,-1.7315972186707895,0.7801075959736383,3.157211255558632,0.015133738326096172,-5.747026905586168,0.0004257572238990662,-1.7315940083141224,0.7801595047330343,-0.15769431463003825,0.6155365320433549,-5.809036953220174,0.00047467152019088323,3.1603028323934796,0.015128476728913055,1.510204081632653,0.6621621621621622
3.0147466018591764,0.015525290771874296,-9.382213885734487,0.0008164218220570486,-0.741882223943068,0.6175284292615932,-2.3151059988746083,0.7791842466991298,-9.3822138505267,0.0008164220930364543,3.014746493881993,0.015525290029041594,-2.3151060005812085,0.7791842494384447,-0.7418822238537589,0.6175284292859076,-0.7413406165420716,0.6170972166479137,-2.315690548031497,0.7788053637323388,2.957853929434165,0.01580280997877142,-3.195499183042348,0.0007075846464104574,-2.315750233925064,0.778827555077391,-0.7412377249274257,0.617080355062979,-3.1294778218100077,0.0007246123294350873,2.9577590671229603,0.01584957933521178,1.5122448979591836,0.6612685560053981
2.870375003687642,0.014445437220035976,-10.57594576357028,0.0010531975068480282,-1.3233585207476342,0.6196204229764612,-2.8978071276458737,0.7776468309591598,-10.575945654074392,0.0010531977356448682,2.8703749584270684,0.014445435611844849,-2.89780712988901,0.7776468344076244,-1.323358520714026,0.6196204230400744,-1.3227917718959499,0.6191960316638834,-2.8983703326428794,0.777277787580568,2.777680969337709,0.014479903558950503,-4.374735779944143,0.0010580421714988012,-2.8984193236742413,0.7772435428272564,-1.3227287665452503,0.6192487020582852,-4.354068714254779,0.0010962843156554782,2.774566119381538,0.014472188362128177,1.5142857142857142,0.6603773584905661
2.8133043747548014,0.012436907689405136,-12.126698443160187,0.0010426691089935425,-1.903564866019655,0.6222103115332436,-3.4788779728408756,0.7759217299065279,-12.126698230989895,0.0010426691991443705,2.8133044195936425,0.012436906262590725,-3.478877975263387,0.7759217330374937,-1.9035648660692295,0.6222103115881792,-1.9029651565159937,0.6217993688253673,-3.479433591269202,0.7755624955914061,2.697505052151852,0.011970415744339168,-5.9930997302933,0.0011488470211293358,-3.4794116603511576,0.7755145564350012,-1.9030203166920467,0.6218541990174226,-5.98394982254142,0.001185960957275387,2.698876365357794,0.011929266748310411,1.5163265306122449,0.6594885598923285
2.8865362162234804,0.010983069253834772,-13.790185587534818,0.0017567002551654915,-2.482809056113655,0.6249126628260238,-4.058266707359082,0.7741390374945224,-13.790185474325291,0.0017567001611493828,2.886536333407224,0.010983068694169939,-4.058266709025576,0.7741390395618752,-2.482809056205614,0.6249126628322995,-2.482184280486808,0.6245214071370125,-4.05881755044614,0.7737832406531994,2.7940642591287923,0.010045543789360392,-7.599919634463482,0.002181429264749697,-4.058752483322758,0.7737806051317089,-2.482283835287981,0.6245101578100711,-7.599081892064486,0.002215041129112537,2.7972497940966794,0.010074121013208325,1.5183673469387755,0.6586021505376344
2.987363196617276,0.011108720818867147,-14.973639334956223,0.003311226238128231,-3.060875637460714,0.6274536406219579,-4.636058417298731,0.7723694686005795,-14.973639292378115,0.0033112260959901846,2.9873633133716275,0.011108721371420957,-4.636058417108992,0.7723694694495742,-3.0608756375235506,0.6274536405721508,-3.060232873448449,0.6270810970768849,-4.636602272162273,0.7720164046847449,2.9456512954669307,0.010206139334501768,-8.727805764202847,0.004165099501639676,-4.636574159347353,0.7720613392352533,-3.0602534461492685,0.6270210107795849,-8.731902343263867,0.00418938512833592,2.941972265671193,0.010225573356522836,1.5204081632653061,0.6577181208053691
2.9787246115902657,0.01191651737017058,-15.947597647662814,0.0052609542634895696,-3.637483025185129,0.6297913994437896,-5.212330160978496,0.7705877928721734,-15.947597627266825,0.00526095411996739,2.97872466101814,0.011916518707855494,-5.212330158319826,0.7705877929987041,-3.6374830251602566,0.6297913993681612,-3.6368220784950234,0.6294372558738526,-5.212870054849878,0.7702374040139963,2.9450863559294995,0.011339538758979095,-9.67755791823099,0.006608976455400619,-5.212912205560424,0.7702746715657228,-3.6367442374705914,0.629402866338594,-9.681609306524349,0.006612703940188517,2.944024253405527,0.011298195756522314,1.5224489795918368,0.6568364611260054
2.885197943583159,0.011973119230465176,-16.846740739265343,0.007294349123221414,-4.212545466910161,0.6319507964513865,-5.7870659085355545,0.768748956559233,-16.846740727497718,0.007294348991908489,2.885197909024738,0.011973120671904446,-5.78706590384194,0.7687489567218886,-4.212545466798417,0.6319507964135088,-4.211867134591733,0.6316173381398558,-5.787601428331432,0.7683975955046224,2.8302921523589037,0.011631635328566517,-10.563489907869094,0.00915470626996932,-5.787662424234882,0.7683828054924772,-4.211788187843673,0.6316480104516127,-10.565571978299957,0.009137454590300563,2.83413043627025,0.011622369835083397,1.5244897959183674,0.6559571619812583
2.7954432256223924,0.010882590098860516,-17.712927157462186,0.009154370560550013,-4.785998864825233,0.633866753815648,-6.360216166987372,0.7668659032275202,-17.712927149872655,0.009154370447048588,2.795443102390879,0.010882591103087182,-6.360216161592397,0.7668659037451824,-4.785998864679127,0.6338667538247283,-4.785307183903339,0.6335571531917457,-6.360741940890832,0.7665154330499054,2.707326181993784,0.010587827068003007,-11.421313374270968,0.011492302281696154,-6.3607489471398635,0.7664665097906109,-4.785319826275499,0.6336140383098648,-11.4211260757545,0.011467054877932724,2.707889047240627,0.01063731474528902,1.526530612244898,0.6550802139037433
2.7831356851615436,0.009298554626305118,-18.562649998225243,0.01062922346836488,-5.357530123483418,0.6354857453262334,-6.931816350244945,0.7649847155818259,-18.562649993085294,0.010629223375829664,2.7831354775100214,0.009298554315808184,-6.9318163456227895,0.7649847161450485,-5.357530123389429,0.6354857453953344,-5.356835853963405,0.6352014679699202,-6.932336885167662,0.7646408808225218,2.658530551420622,0.008856465253458151,-12.265418999066489,0.013358017802950742,-6.932280613535437,0.7646160790353119,-5.3569213726131695,0.6352168397581283,-12.263768996407423,0.013345367008505367,2.6522895667741313,0.008852753294064371,1.5285714285714287,0.6542056074766355
2.856450958327653,0.008093530331794328,-19.404994283878576,0.011570927626213324,-5.926707077868248,0.6370091575169787,-7.501991675853634,0.7630698475704241,-19.404994280440167,0.011570927555460681,2.856450840525095,0.008093528291962176,-7.501991672889737,0.7630698474307572,-5.926707077882231,0.6370091576054162,-5.926020520282901,0.6367430898046057,-7.502515550404903,0.7627299195595373,2.7031532517621732,0.0073829457436107755,-13.10364574483087,0.014563991332635463,-7.502462697217605,0.7627599668214181,-5.926076563957151,0.6367004936314435,-13.102101252183353,0.014575683245875277,2.706304470598248,0.007325982571804898,1.530612244897959,0.6533333333333333
2.9448485749966427,0.0073575053298174245,-20.247676688273245,0.011907793150497075,-6.493501737421873,0.6389151012340902,-8.070772062255282,0.7609461717162774,-20.24767668613346,0.011907793101285123,2.9448487589126033,0.0073575033591523125,-8.070772061001398,0.7609461701452367,-6.493501737534412,0.638915101282112,-6.4928152389894045,0.6386574365988394,-8.071296950989316,0.7606071717369377,2.768881959463345,0.006294444420690038,-13.942897540239208,0.015020518638301391,-8.071312775330272,0.7606563916059902,-6.492778272783233,0.6386078277060494,-13.942780448909522,0.015045325283413995,2.7767004660724752,0.006340400128233475,1.5326530612244897,0.6524633821571239
3.033044836231709,0.006381777600665512,-21.09943424600863,0.011644557818158438,-7.0586277127690344,0.6416070736627139,-8.637893645678904,0.7584392206858723,-21.099434244810297,0.011644557791737342,3.033045191525848,0.006381777724682338,-8.637893645454811,0.7584392173772015,-7.058627712892302,0.6416070736365005,-7.057925056149931,0.6413597026823796,-8.638423395229387,0.7581066527687297,2.8427814712114534,0.004795505039348444,-14.791561074494645,0.014732595269682206,-8.638489098944635,0.7581146464752151,-7.057839591769861,0.6413601056096346,-14.792877592292024,0.014746386195927061,2.8291498631846426,0.004826830576056023,1.5346938775510204,0.6515957446808511
3.334172224929431,0.00509564928538061,-21.970803342717456,0.010863375696309014,-7.623188078764676,0.6449753400595903,-9.202886595009451,0.7556282514902742,-21.970803342221114,0.010863375694883458,3.334172368557224,0.005095651097896643,-9.202886594827053,0.7556282468443183,-7.623188078808007,0.6449753399838356,-7.622467958084814,0.6447479704907113,-9.20343873351962,0.7552972489949954,3.3912810822369392,0.0028953921410172774,-15.659941568474597,0.01379544432129504,-9.203473861436933,0.7552554950758994,-7.622431879841288,0.6447982395888417,-15.661427839170655,0.013786976441646066,3.402689237117355,0.0028259947662301714,1.536734693877551,0.650730411686587
3.897351507719395,0.006339338867800246,-22.87411722113615,0.009733682386598915,-8.187808056653747,0.6483234688740221,-9.765478044381148,0.7529270645403112,-22.874117221109724,0.00973368241266392,3.8973513086833775,0.006339340043421731,-9.765478043644556,0.7529270596297079,-8.187808056593036,0.6483234688031169,-8.187081791521807,0.6481213495843671,-9.7660526985632,0.752578740186333,4.2762089690080725,0.00544330458862216,-16.55991492726335,0.012410169906607382,-9.766017855548387,0.7525385253020774,-8.187138064628673,0.6481647380034994,-16.560237181840826,0.012390526986677388,4.27507994066929,0.005522246747312447,1.5387755102040817,0.649867374005305
3.9906853341274475,0.010675947421193654,-23.821509648270094,0.008512286134461575,-8.75200544620257,0.6508213241784102,-10.325954704019852,0.7508377619246904,-23.821509648118393,0.008512286189377733,3.990685157359979,0.01067594754874749,-10.325954703063942,0.750837757994114,-8.75200544607246,0.6508213241569653,-8.751286346722235,0.6506438724987882,-10.326530712072183,0.7504640990507992,4.201180144145933,0.010841199313411596,-17.503143733434328,0.010891040408319518,-10.326468854862945,0.7504697934026417,-8.751372953337059,0.650628300726542,-17.50207388161485,0.010878005844167576,4.194199755876566,0.01081495629353346,1.5408163265306123,0.6490066225165563
3.799250843801089,0.014876066169915755,-24.81572546235971,0.007495404351453269,-9.31441735521684,0.6521556683762623,-10.885101415898017,0.7495486232938267,-24.815725460410253,0.007495404435350431,3.799250709416511,0.014876065063065772,-10.885101415830217,0.7495486210787023,-9.314417355087247,0.6521556684257811,-9.313716907725393,0.651995055896893,-10.88566442305517,0.7491545370017946,3.911646229845502,0.015424922292264713,-18.49282387534201,0.009609904897120429,-10.885642552159005,0.7491982204731357,-9.313730471415534,0.6519354052078473,-18.491310322996785,0.009610312709496124,3.9135695522757645,0.015351553234901,1.542857142857143,0.6481481481481481
3.53892171268164,0.017033812650033578,-25.832764821326112,0.006892508654123895,-9.873769425267124,0.6528263059366276,-11.443686884723704,0.7487206935367788,-25.83276481529623,0.006892508761889895,3.5389216509936263,0.017033810343310616,-11.443686886637664,0.7487206929428529,-9.873769425221756,0.6528263060403563,-9.873082635809117,0.6526687208463215,-11.44422834589729,0.7483116431608934,3.592551674722544,0.017538148305404788,-19.50713144982291,0.008841378395522738,-11.444271111332379,0.7483477187157065,-9.873002151811907,0.6526363219472786,-19.506275702054385,0.008849858709194863,3.5965704218973555,0.017567824840079266,1.5448979591836736,0.6472919418758256
3.297994166794891,0.016573812976314946,-26.822454457768576,0.006682977661389926,-10.42983633344737,0.6538103099933484,-12.001885535119577,0.7476804295847814,-26.822454446357895,0.006682977785019825,3.2979942053047338,0.01657381059903939,-12.001885539353681,0.7476804299138331,-10.429836333528701,0.6538103100898367,-10.42913933205427,0.6536524245900909,-12.002399927776574,0.7472693803678436,3.310577913432583,0.016700795121390537,-20.498028442931812,0.008578971908017267,-12.00246627621322,0.7472563541761076,-10.429061572774023,0.653688515842058,-20.498060453441436,0.008587092487856256,3.3087242602488693,0.016766166062134647,1.5469387755102042,0.646437994722955
3.157148795713802,0.013979295372438397,-27.74333056589702,0.0066377206167158595,-10.983614230339377,0.6558427275944407,-12.55912799866405,0.7458973969594886,-27.74333054925184,0.006637720752705375,3.157148922181042,0.013979294230856476,-12.559128004585551,0.7458973974003273,-10.983614230497759,0.6558427276205218,-10.982895290065745,0.6556971988299395,-12.559632717098816,0.7454980653449096,3.146299745541868,0.013467420732097276,-21.423785269612996,0.008544554856578256,-12.559646232597403,0.7454440715766472,-10.982915212146555,0.6557579088212812,-21.42416610159098,0.008548748127737723,3.1422095294530097,0.013429591997373378,1.5489795918367348,0.6455862977602107
3.2566942633001887,0.011273942753768187,-28.580919645130642,0.006507913758733723,-11.536531635324323,0.6588955522937738,-13.11452182519029,0.743365306313765,-28.580919623791008,0.006507913912935349,3.2566944089529812,0.011273943176864596,-13.114521831438733,0.7433653063610447,-11.53653163545709,0.6588955522357023,-11.535803525116343,0.6587709864548827,-13.115042458733868,0.7429694422850504,3.2926971485493493,0.010198116229833075,-22.268824299379784,0.008418043158298014,-13.114977884093584,0.742936360901625,-11.53589454012757,0.6587836097160805,-22.269241794855333,0.00842036233527331,3.2978654343444735,0.010169356742106023,1.5510204081632653,0.6447368421052632
3.5295872936329564,0.012180747482761446,-29.331856278049713,0.0061710617131739845,-12.089365645926557,0.662286440382023,-13.667507031797918,0.7405809259678875,-29.331856253146878,0.006171061896183681,3.5295873511330194,0.012180748869947232,-13.667507036772594,0.7405809256640182,-12.089365645959354,0.6622864402738589,-12.088639040296762,0.6621787577078827,-13.668041867374193,0.7401688226990563,3.6495420793100877,0.011734633414947977,-23.030176365246184,0.008029585171861038,-13.667972284882708,0.7402009710082568,-12.088693893081485,0.66213051868177,-23.030872169561473,0.00802994496585876,3.648834997431091,0.011786307660111014,1.5530612244897959,0.6438896189224704
3.550947892232043,0.01635523189043371,-29.988402529346082,0.005671809721242774,-12.641810035177665,0.6652880777038891,-14.21823533105632,0.7381483751392226,-29.988402503656122,0.005671809949875048,3.550947870471393,0.016355233565207326,-14.218235333568911,0.7381483750922138,-12.641810035087197,0.6652880775985677,-12.641082813790218,0.6651930898887531,-14.218764951767561,0.7377136990242114,3.638752704447606,0.01696076693952787,-23.70222045842531,0.007410713257834322,-14.218777247696831,0.7377751909745522,-12.641041830688913,0.6651396789955365,-23.702880298181014,0.007404653869176372,3.636385939386984,0.016942068111750013,1.5551020408163265,0.6430446194225722
3.357151799859337,0.02002086398002492,-30.540673199412748,0.005211139778003618,-13.192974844555359,0.6676642673749467,-14.767384562086136,0.7363345725275589,-30.540673180427703,0.005211140063475614,3.357151730845458,0.020020865272351213,-14.767384561960263,0.7363345735656902,-13.192974844375478,0.6676642673242508,-13.192243253430053,0.6675814926748016,-14.767896179069659,0.735880958025337,3.3986854845061587,0.021245123921557686,-24.275052827233562,0.006777441926757232,-14.767978496403753,0.7358981298708519,-13.192152965134277,0.6675821750472613,-24.274344277269897,0.006768984494956714,3.3994426043790082,0.021212637144479657,1.5571428571428572,0.6422018348623854
