s11a,s11m,s21a,s21m,s31a,s31m,s41a,s41m,s12a,s12m,s22a,s22m,s32a,s32m,s42a,s42m,s13a,s13m,s23a,s23m,s33a,s33m,s43a,s43m,s14a,s14m,s24a,s24m,s34a,s34m,s44a,s44m,wavelengths,freqs
2.9762373409181055,0.013348932144405336,-1.2025912379346437,0.009754065862756213,2.791538525490362,0.6001500303267765,1.2101470642340513,0.7877940314737684,-1.2025912437071877,0.009754065526051093,2.9762373565076032,0.013348930255931505,1.2101470617663974,0.7877940293028135,2.7915385255148273,0.6001500304744076,2.7918997718406504,0.5996656486913414,1.209476868848833,0.7874174001365605,2.8849602315007634,0.013845443482683826,-1.1678125265603465,0.01252932062019056,1.2094561378631268,0.7874795977726843,2.7919713133937294,0.5995940034005435,-1.173909674168156,0.012528334287040177,2.883101774265955,0.01386915086617679,1.5,0.6666666666666666
2.925262017345719,0.01174752835514933,-2.068797922867864,0.007990203263737727,2.201180945005915,0.6047513668527993,0.618708569136144,0.7861250751545565,-2.0687979307277904,0.007990202934523752,2.92526214344606,0.01174752758618067,0.6187085655727775,0.7861250728854559,2.2011809448824917,0.6047513669801254,2.20158003377406,0.6042572769816552,0.6180530332349682,0.7857562212417516,2.796334866226639,0.011496612187265793,-2.0270953076680076,0.010351933082839073,0.6179754721401619,0.7857610313358806,2.2017062511880745,0.604271684956827,-2.030154758157593,0.010284369953945773,2.7949186316481756,0.011461507338071872,1.5020408163265306,0.6657608695652174
3.0247282002694202,0.010273784946474422,-2.946984225166649,0.005845221123606895,1.609713533750656,0.6092649147552197,0.02898128542980917,0.7844714888081941,-2.9469842371435617,0.0058452208014411235,3.024728315344929,0.010273785577685627,0.028981281604906154,0.7844714865128298,1.6097135335667228,0.6092649148113047,1.6101615587200346,0.6087765479944908,0.028333722654344133,0.7841040579158931,2.926340868657034,0.00924386707483534,-2.894073076950382,0.0076813211523875545,0.028302507292105178,0.7840517904988347,1.6101846816164862,0.6088472480059846,-2.8882246759228867,0.007625550367634588,2.930863871906319,0.00924781557587119,1.5040816326530613,0.6648575305291723
3.219796383535024,0.010694304561543579,-3.846181773678295,0.0036011470336559234,1.0182049402662166,0.6126513128554052,-0.5590658238962278,0.7829663692408162,-3.8461817957536706,0.00360114672415254,3.219796411747724,0.010694305724565777,-0.559065827065184,0.7829663674008361,1.0182049401157274,0.6126513128413206,1.0186874696525159,0.6121785265774271,-0.5597018321227212,0.7825978057897787,3.220820266210377,0.009685885894352151,-3.771145274031369,0.0048641378740467344,-0.5596540536374166,0.7825576797634961,1.0185961860265664,0.6122173219658676,-3.7576130339798954,0.004877615040648494,3.217602996435017,0.009717812793634333,1.506122448979592,0.6639566395663956
3.2754987144591565,0.01292174267812779,-4.809390901771277,0.0016000782570822281,0.42846827287242256,0.6147032246141957,-1.1456465772801572,0.781674632949225,-4.809390968439983,0.0016000779709289738,3.275498665960301,0.012921743944795406,-1.1456465794123738,0.7816746323520005,0.4284682728233374,0.614703224564426,0.4289753647118232,0.6142461308812931,-1.1462723338020688,0.7813040804407022,3.2920040524409644,0.012600822708296131,-4.668800475169894,0.0023280102137994687,-1.1462087239612848,0.7813223690080675,0.4288834249750919,0.6142120127837031,-4.660738715445297,0.002387126609835679,3.2907584098669194,0.012557173409058512,1.5081632653061225,0.6630581867388362
3.1750223835322697,0.014956191763785553,-6.8038397385630685,0.00024365401819354484,-0.15823457569508084,0.6160432506720892,-1.7309865774269837,0.7804849380509795,-6.803840923034347,0.00024365399920726625,3.1750222765320406,0.014956192363044846,-1.730986578960929,0.7804849392262796,-0.15823457563815035,0.6160432506413953,-0.15770839403057993,0.615601489177217,-1.731597218670813,0.7801075959736079,3.157211255560385,0.015133738326091403,-5.747026905578584,0.0004257572238989714,-1.7315940083152994,0.7801595047321962,-0.15769431463026695,0.6155365320433172,-5.809036953175424,0.00047467152020683114,3.1603028324032145,0.015128476729007178,1.510204081632653,0.6621621621621622
3.014746601858036,0.015525290771872449,-9.38221388573605,0.0008164218220475864,-0.741882223943033,0.617528429261586,-2.315105998874635,0.7791842466991271,-9.382213850526256,0.0008164220930368354,3.0147464938808537,0.01552529002903967,-2.3151060005812236,0.7791842494384511,-0.7418822238537199,0.6175284292858922,-0.7413406165421386,0.6170972166479314,-2.315690548031525,0.7788053637323102,2.957853929435877,0.015802809978763734,-3.1954991830514703,0.0007075846464032146,-2.3157502339251876,0.7788275550772198,-0.7412377249276452,0.6170803550629891,-3.1294778218348993,0.0007246123294134198,2.9577590671325815,0.015849579335182298,1.5122448979591836,0.6612685560053981
2.8703750036864926,0.014445437220031521,-10.575945763682789,0.001053197506513411,-1.3233585207466536,0.6196204229758948,-2.897807127645086,0.7776468309596051,-10.575945654076055,0.0010531977356375553,2.8703749584259213,0.014445435611840234,-2.8978071298898227,0.7776468344071822,-1.323358520714996,0.6196204230406356,-1.322791771895997,0.6191960316638895,-2.8983703326438297,0.7772777875799681,2.777680969339403,0.014479903558940257,-4.374735779776633,0.001058042171895296,-2.8984193236744176,0.7772435428271195,-1.3227287665445437,0.6192487020577326,-4.3540687144407375,0.0010962843152662908,2.774566119388036,0.014472188361972487,1.5142857142857142,0.6603773584905661
2.813304374750847,0.012436907689289931,-12.126698443164932,0.001042669108988104,-1.9035648660196014,0.6222103115332627,-3.478877972840884,0.7759217299065735,-12.12669823099474,0.0010426691991390054,2.8133044195896457,0.012436906262473988,-3.4788779752634063,0.7759217330375389,-1.9035648660692295,0.6222103115882138,-1.9029651565160386,0.6217993688253757,-3.479433591269244,0.7755624955913785,2.6975050521535735,0.011970415744325415,-5.993099730287799,0.0011488470211416617,-3.479411660351367,0.7755145564348501,-1.9030203166922568,0.6218541990174681,-5.9839498225536,0.0011859609573100938,2.698876365366146,0.011929266748199115,1.5163265306122449,0.6594885598923285
2.8865362162228703,0.010983069253826595,-13.790185587542044,0.00175670025516454,-2.482809056113599,0.6249126628260088,-4.058266707359065,0.7741390374945392,-13.79018547432937,0.001756700161149023,2.886536333406659,0.010983068694162166,-4.0582667090255935,0.7741390395618761,-2.4828090562056486,0.624912662832317,-2.4821842804868504,0.6245214071370215,-4.058817550446193,0.7737832406531703,2.794064259130943,0.01004554378934564,-7.599919634451166,0.002181429264751395,-4.058752483322996,0.7737806051315522,-2.482283835288147,0.6245101578100982,-7.599081892046544,0.002215041129137243,2.7972497941093204,0.010074121013133078,1.5183673469387755,0.6586021505376344
2.987363196617069,0.011108720818861878,-14.973639334958037,0.0033112262381307517,-3.0608756374606854,0.6274536406219512,-4.636058417298742,0.7723694686005814,-14.973639292380769,0.003311226095993866,2.987363313371326,0.011108721371409525,-4.6360584171090045,0.7723694694495775,-3.0608756375235235,0.6274536405721456,-3.0602328734484705,0.6270810970768909,-4.636602272162325,0.7720164046847227,2.9456512954695344,0.010206139334485371,-8.727805764199832,0.004165099501635581,-4.636574159347616,0.7720613392351119,-3.060253446149442,0.6270210107796257,-8.731902343248304,0.004189385128320366,2.9419722656867924,0.01022557335644738,1.5204081632653061,0.6577181208053691
2.978724611590214,0.011916517370168358,-15.947597647664145,0.00526095426349748,-3.6374830251851313,0.6297913994437917,-5.212330160978506,0.7705877928721753,-15.947597627267568,0.005260954119971829,2.9787246610180715,0.01191651870785367,-5.212330158319834,0.7705877929987063,-3.6374830251602295,0.6297913993681544,-3.6368220784950567,0.6294372558738629,-5.212870054849936,0.7702374040139738,2.945086355932396,0.011339538758961947,-9.677557918229255,0.006608976455391217,-5.212912205560697,0.7702746715656037,-3.6367442374707135,0.6294028663386273,-9.68160930651475,0.006612703940135399,2.9440242534226786,0.011298195756447898,1.5224489795918368,0.6568364611260054
2.8851979415658118,0.011973119198759154,-16.84674073926804,0.007294349123377366,-4.212545466912671,0.6319507964643846,-5.787065908538098,0.7687489565750539,-16.84674072749788,0.007294348991914392,2.8851979090247117,0.01197312067190669,-5.787065903841952,0.7687489567218889,-4.212545466798421,0.63195079641351,-4.211867134591763,0.6316173381398873,-5.787601428331487,0.7683975955046343,2.830292152360472,0.011631635328466018,-10.563489907868053,0.00915470626995163,-5.787662424235159,0.7683828054923438,-4.211788187843804,0.6316480104516242,-10.565571978295456,0.009137454590233192,2.834130436291167,0.011622369835133047,1.5244897959183674,0.6559571619812583
2.795443225622385,0.010882590098867004,-17.7129271574622,0.009154370560551208,-4.785998864825206,0.633866753815644,-6.36021616698738,0.7668659032275214,-17.712927149867113,0.009154370447157301,2.7954431023931265,0.010882591103210376,-6.360216161592409,0.7668659037451437,-4.785998864679105,0.6338667538246937,-4.785307183902872,0.633557153191526,-6.360741940890883,0.7665154330498652,2.7073261820007164,0.01058782706810467,-11.421313374270515,0.01149230228168273,-6.360748947140472,0.7664665097902927,-4.7853198262756385,0.6336140383099149,-11.421126075752863,0.011467054877866575,2.7078890472612374,0.010637314745220764,1.526530612244898,0.6550802139037433
2.7831356851587175,0.009298554626206223,-18.562649998230334,0.01062922346829461,-5.357530123483435,0.6354857453262709,-6.931816350244953,0.7649847155818609,-18.562649993102188,0.010629223375587308,2.783135477509648,0.009298554315819123,-6.931816345622788,0.7649847161450569,-5.357530123389403,0.6354857453953305,-5.356835853964362,0.6352014679702822,-6.932336885167505,0.7646408808226706,2.6585305514246946,0.00885646525344555,-12.265418999066235,0.013358017802941088,-6.932280613535073,0.7646160790357315,-5.356921372613553,0.6352168397582804,-12.263768996407949,0.013345367008442124,2.652289566797527,0.008852753294016906,1.5285714285714287,0.6542056074766355
2.8564509583263953,0.008093530331806962,-19.40499428387798,0.01157092762622264,-5.9267070778682225,0.6370091575169757,-7.5019916758536445,0.7630698475704221,-19.40499428043957,0.011570927555470048,2.856450840523832,0.008093528291974444,-7.501991672889749,0.7630698474307557,-5.926707077882205,0.6370091576054137,-5.92602052028292,0.6367430898046137,-7.502515550404951,0.7627299195595356,2.703153251766584,0.007382945743602071,-13.103645744830674,0.014563991332629532,-7.502462697217843,0.7627599668213849,-5.926076563957232,0.6367004936314744,-13.102101252183443,0.014575683245852677,2.706304470623336,0.0073259825717816186,1.530612244897959,0.6533333333333333
2.944848574994323,0.007357505329825493,-20.247676688299684,0.011907793150151148,-6.493501737421848,0.6389151012340879,-8.070772062255294,0.7609461717162752,-20.24767668613204,0.011907793101304374,2.944848758912242,0.007357503359263338,-8.070772061001419,0.760946170145201,-6.493501737534396,0.6389151012820807,-6.492815238989391,0.6386574365988384,-8.071296950988785,0.760607171737385,2.768881959468044,0.006294444420682582,-13.94289754023894,0.015020518638299132,-8.071312775330494,0.7606563916059389,-6.49277827278422,0.638607827706367,-13.94278044890897,0.015045325283416046,2.776700466101817,0.006340400128278852,1.5326530612244897,0.6524633821571239
3.0330448362286626,0.006381777600667286,-21.099434246007835,0.011644557818169426,-7.058627712769047,0.6416070736627152,-8.637893645678922,0.7584392206858682,-21.09943424480951,0.011644557791748417,3.033045191522744,0.006381777724683866,-8.63789364545482,0.7584392173772023,-7.058627712892267,0.6416070736364972,-7.057925056149947,0.6413597026823818,-8.638423395229424,0.7581066527687307,2.842781471217667,0.004795505039340156,-14.791561074493913,0.014732595269687369,-8.638489098944818,0.7581146464751973,-7.057839591769918,0.6413601056096383,-14.792877592291031,0.014746386195930022,2.829149863218903,0.004826830576026544,1.5346938775510204,0.6515957446808511
3.3341722250439463,0.005095649285979541,-21.970803342716664,0.010863375696324005,-7.623188078764709,0.6449753400598028,-9.202886595009529,0.7556282514905164,-21.970803342253827,0.010863375694497204,3.3341723685538542,0.005095651097889006,-9.202886594827069,0.7556282468443156,-7.623188078807949,0.6449753399838316,-7.622467958085735,0.644747970490983,-9.203438733519652,0.7552972489949962,3.391281082248309,0.002895392141025289,-15.659941568473082,0.013795444321310496,-9.20347386143654,0.7552554950763061,-7.622431879841327,0.6447982395888302,-15.661427839167214,0.013786976441665334,3.402689237178137,0.0028259947662971634,1.536734693877551,0.650730411686587
3.8973515077181093,0.006339338867784761,-22.874117221134185,0.009733682386623088,-8.187808056653735,0.6483234688740191,-9.765478044381162,0.7529270645403089,-22.87411722114479,0.009733682412293592,3.897351308682112,0.006339340043406281,-9.765478043644574,0.7529270596297019,-8.187808056593012,0.6483234688031181,-8.187081791522699,0.6481213495846004,-9.766052698563232,0.7525787401863238,4.276208969010546,0.005443304588655498,-16.559914927262458,0.012410169906607295,-9.766017855547984,0.7525385253024749,-8.187138064628657,0.648164738003471,-16.56023718183633,0.012390526986679352,4.275079940678351,0.005522246747503571,1.5387755102040817,0.649867374005305
3.990685334126861,0.010675947421177511,-23.821509648308833,0.00851228613410795,-8.75200544620258,0.6508213241784131,-10.325954704019859,0.7508377619246935,-23.821509648118514,0.008512286189377093,3.990685157359398,0.010675947548731331,-10.325954703063948,0.7508377579941173,-8.752005446072467,0.650821324156968,-8.751286346722274,0.650643872498786,-10.326530712071705,0.7504640990512256,4.2011801441471,0.01084119931344477,-17.50314373343438,0.010891040408301455,-10.32646885486303,0.7504697934026076,-8.751372953337937,0.6506283007267084,-17.502073881610777,0.010878005844140759,4.1941997558812645,0.010814956293723239,1.5408163265306123,0.6490066225165563
3.7992508438005,0.014876066169898968,-24.815725462358664,0.007495404351463529,-9.31441735521682,0.6521556683762662,-10.885101415898033,0.749548623293824,-24.815725460409052,0.007495404435361956,3.799250709415937,0.014876065063049395,-10.885101415830231,0.7495486210787005,-9.314417355087224,0.6521556684257842,-9.313716907725395,0.6519950558968888,-10.885664423055184,0.7491545370017891,3.911646229846798,0.015424922292291636,-18.49282387534103,0.00960990489711571,-10.885642552159075,0.7491982204730736,-9.313730471415523,0.6519354052078177,-18.491310322992774,0.009610312709469996,3.9135695522814617,0.015351553235062383,1.542857142857143,0.6481481481481481
3.538921712680142,0.017033812650052018,-25.83276482132632,0.006892508654122871,-9.873769425267126,0.652826305936626,-11.443686884723736,0.7487206935367604,-25.83276481529331,0.0068925087619135,3.5389216509950465,0.017033810343201512,-11.443686886637657,0.7487206929428889,-9.873769425221685,0.6528263060403842,-9.873082635809084,0.6526687208463161,-11.444228345897294,0.7483116431608895,3.5925516747240316,0.017538148305422347,-19.507131449820736,0.008841378395531976,-11.444271111332421,0.7483477187156435,-9.873002151811907,0.6526363219472792,-19.506275702053188,0.008849858709159445,3.596570421907141,0.01756782484008428,1.5448979591836736,0.6472919418758256
3.2979941667946227,0.016573812976221437,-26.8224544577672,0.006682977661401282,-10.429836333447335,0.6538103099933703,-12.001885535119149,0.7476804295851207,-26.822454446356534,0.006682977785030925,3.2979942053039393,0.016573810599023603,-12.001885539353697,0.7476804299138309,-10.429836333529437,0.6538103100899253,-10.429139332054273,0.6536524245900885,-12.002399927776583,0.7472693803678276,3.3105779134344133,0.01670079512139671,-20.49802844297022,0.008578971907622959,-12.00246627621324,0.7472563541760324,-10.429061572773996,0.6536885158420623,-20.49806045344067,0.008587092487840078,3.308724260258992,0.016766166062066757,1.5469387755102042,0.646437994722955
3.1571487957130553,0.013979295372504873,-27.74333056591834,0.006637720616531577,-10.983614230340116,0.6558427275945027,-12.559127998664078,0.7458973969594659,-27.74333054925059,0.006637720752717312,3.1571489221800424,0.013979294230716838,-12.559128004585132,0.7458973974006666,-10.983614230497718,0.6558427276205528,-10.982895290065748,0.6556971988299374,-12.55963271709859,0.7454980653451327,3.146299745544428,0.013467420732095788,-21.42378526961269,0.008544554856573712,-12.559646232597443,0.7454440715765133,-10.982915212147041,0.6557579088213366,-21.424166101624586,0.008548748127328474,3.14220952946686,0.013429591997416035,1.5489795918367348,0.6455862977602107
3.256694263298233,0.011273942753877053,-28.580919645128848,0.006507913758755792,-11.536531635324312,0.6588955522937506,-13.114521825190328,0.7433653063137373,-28.580919623816957,0.006507913912632869,3.2566944089510454,0.011273943176974919,-13.114521831438765,0.7433653063610131,-11.536531635457042,0.658895552235685,-11.535803525117068,0.6587709864549963,-13.115042458733885,0.7429694422850216,3.292697148553193,0.010198116229838848,-22.26882429937852,0.008418043158310866,-13.11497788409329,0.7429363609018202,-11.535894540127584,0.6587836097160308,-22.269241794854878,0.008420362335270189,3.2978654343630485,0.010169356742285298,1.5510204081632653,0.6447368421052632
3.5295872936329817,0.012180747482744492,-29.331856278048857,0.00617106171319213,-12.089365645926572,0.662286440382025,-13.667507031797934,0.7405809259678873,-29.331856253146245,0.006171061896197398,3.529587351135969,0.012180748869853862,-13.66750703677259,0.7405809256640423,-12.089365645959319,0.662286440273881,-12.088639040296757,0.6621787577079028,-13.668041867374193,0.7401688226990539,3.6495420793193305,0.011734633414856898,-23.030176365246017,0.008029585171858087,-13.667972284882772,0.7402009710080691,-12.088693893081528,0.6621305186817158,-23.030872169561796,0.008029944965833922,3.6488349974412793,0.011786307660372955,1.5530612244897959,0.6438896189224704
3.5509478922321014,0.01635523189041907,-29.988402529346025,0.005671809721256264,-12.641810035176974,0.665288077703872,-14.218235331056336,0.7381483751392229,-29.988402503655934,0.005671809949904272,3.550947870471467,0.016355233565192653,-14.218235333569297,0.7381483750919167,-12.64181003508717,0.6652880775985738,-12.641082813790188,0.665193089888749,-14.218764951767575,0.7377136990241814,3.6387527044498067,0.01696076693955677,-23.702220458425188,0.0074107132578315246,-14.218777247696902,0.737775190974375,-12.641041830688959,0.6651396789955022,-23.702880298178172,0.007404653869555155,3.6363859393979516,0.01694206811192704,1.5551020408163265,0.6430446194225722
3.35715179985932,0.020020863980011155,-30.540673199412666,0.005211139778001031,-13.192974844555291,0.6676642673749584,-14.767384562086143,0.7363345725275628,-30.54067318042837,0.005211140063487239,3.3571517308476486,0.020020865272221626,-14.767384561960274,0.7363345735657134,-13.192974844375478,0.667664267324278,-13.192243253430071,0.6675814926747871,-14.767896179069679,0.7358809580253041,3.398685484507315,0.021245123921622876,-24.2750528272328,0.0067774419267383895,-14.767978496403835,0.7358981298706762,-13.192152965134369,0.6675821750472221,-24.274344277270647,0.006768984494961353,3.399442604388979,0.021212637144630633,1.5571428571428572,0.6422018348623854
